(1563316370.627559) can0 002#12000007D9535D0E
(1563316370.628247) can0 7E8#0641010007E50000
(1563316370.629271) can0 174#654654AA0E000000
(1563316370.629272) can0 176#001E0026C8000E
(1563316370.629273) can0 177#FE11400000
(1563316370.630309) can0 160#3273530008FFE8
(1563316370.630311) can0 180#189C353327003E10
(1563316370.631310) can0 003#6100000000000000
(1563316370.631311) can0 004#5400000000000000
(1563316370.631312) can0 005#4D000000
(1563316370.631313) can0 355#00000000000060
(1563316370.632996) can0 385#00000000000000
(1563316370.634018) can0 216#426C
(1563316370.634019) can0 245#FFE000180010FFE1
(1563316370.634020) can0 2A0#FF7FFD7FFFFE00
(1563316370.635682) can0 002#12000007EA535D0E
(1563316370.638561) can0 174#654654AA0F000000
(1563316370.639570) can0 215#FFFCFF00FFFF
(1563316370.639572) can0 176#001E0026C8000F
(1563316370.639586) can0 177#FE11400000
(1563316370.640605) can0 2DE#0200800680000943
(1563316370.640606) can0 160#3273530008FFE8
(1563316370.640607) can0 180#189C353327003F10
(1563316370.641622) can0 182#00000000001F40C9
(1563316370.641624) can0 1F9#E800189C00000000
(1563316370.642616) can0 7E8#0441030200000000
(1563316370.643663) can0 284#000000000000DD63
(1563316370.643664) can0 285#000000000000DD64
(1563316370.645209) can0 280#03C4800000009F40
(1563316370.646226) can0 002#12000007FB535D0E
(1563316370.648579) can0 174#654654AA00000000
(1563316370.649580) can0 176#001E0026C80000
(1563316370.649582) can0 177#FE11400000
(1563316370.649582) can0 421#0800
(1563316370.650560) can0 2DE#0200800680000943
(1563316370.650561) can0 160#3273530008FFE8
(1563316370.651583) can0 180#189C353327003010
(1563316370.651584) can0 182#00000000001040C9
(1563316370.651585) can0 1F9#E800189C00000000
(1563316370.652964) can0 60D#0806000000000000
(1563316370.653952) can0 216#426C
(1563316370.653953) can0 245#FFE000180010FFE2
(1563316370.653953) can0 2A0#FF7FFE7FFFFE00
(1563316370.653954) can0 354#0000000000001400
(1563316370.656053) can0 7E8#0341046200000000
(1563316370.656054) can0 002#120000078C535D0E
(1563316370.658594) can0 174#654654AA01000000
(1563316370.659600) can0 215#FFFCFF00FFFF
(1563316370.659601) can0 176#001E0026C80001
(1563316370.659602) can0 177#FE11400000
(1563316370.660621) can0 2DE#0200800680000943
(1563316370.661623) can0 160#3273530008FFE8
(1563316370.661624) can0 180#189C353327003110
(1563316370.661625) can0 182#00000000001140C9
(1563316370.661625) can0 1F9#E800189C00000000
(1563316370.663184) can0 284#000000000000DE64
(1563316370.664203) can0 285#000000000000DE65
(1563316370.665226) can0 280#03C4800000009A40
(1563316370.666182) can0 5C5#4401F0C8000C007F
(1563316370.666182) can0 002#120000079D535D0E
(1563316370.668871) can0 7E8#0341058100000000
(1563316370.668872) can0 174#654654AA02000000
(1563316370.669892) can0 176#001E0026C80002
(1563316370.669893) can0 177#FE11400000
(1563316370.670892) can0 2DE#0200800680000943
(1563316370.670893) can0 355#00000000000060
(1563316370.671913) can0 160#3273530008FFE8
(1563316370.671915) can0 180#189C353327003210
(1563316370.671931) can0 182#00000000001240C9
(1563316370.671931) can0 1F9#E800189C00000000
(1563316370.672975) can0 216#426C
(1563316370.673997) can0 245#FFE000180010FFE3
(1563316370.673998) can0 2A0#FF7FFF7FFFFE00
(1563316370.673999) can0 35D#8103000010000000
(1563316370.675664) can0 002#12000007AE535D0E
(1563316370.678603) can0 174#654654AA03000000
(1563316370.679622) can0 215#FFFCFF00FFFF
(1563316370.679623) can0 176#001E0026C80003
(1563316370.679624) can0 177#FE11400000
(1563316370.679625) can0 560#741699
(1563316370.680634) can0 2DE#0200800680000943
(1563316370.681665) can0 160#3273530008FFE8
(1563316370.681666) can0 180#189C353327003310
(1563316370.681667) can0 182#00000000001340C9
(1563316370.682663) can0 1F9#E800189C00000000
(1563316370.683700) can0 7E8#0341068200000000
(1563316370.683701) can0 625#0280FF1D2000
(1563316370.683701) can0 284#000000000000DF65
(1563316370.683702) can0 285#000000000000DF66
(1563316370.685393) can0 280#03C4800000009D40
(1563316370.686390) can0 002#12000007BF535D0E
(1563316370.688518) can0 174#654654AA04000000
(1563316370.689536) can0 176#001E0026C80004
(1563316370.689536) can0 177#FE11400000
(1563316370.690556) can0 003#6175000000000000
(1563316370.691579) can0 004#5468000000000000
(1563316370.691580) can0 005#4D610000
(1563316370.692578) can0 182#00000000001440C9
(1563316370.692579) can0 1F9#E800188300000000
(1563316370.692580) can0 551#810E0080FF0280FF
(1563316370.692580) can0 580#00AA800000000000
(1563316370.693580) can0 6E2#000079
(1563316370.693580) can0 216#426C
(1563316370.693581) can0 245#FFE000180010FFE0
(1563316370.693582) can0 2A0#FF7FFF7FFFFE00
(1563316370.694598) can0 354#0000000000001400
(1563316370.694599) can0 358#0042800000000000
(1563316370.696662) can0 002#1200000740535D0E
(1563316370.696663) can0 7E8#0341077C00000000
(1563316370.698580) can0 174#654654AA05000000
(1563316370.699601) can0 215#FFFCFF00FFFF
(1563316370.699602) can0 176#001E0026C80005
(1563316370.699602) can0 177#FE11400000
(1563316370.700599) can0 2DE#0200800680000943
(1563316370.701662) can0 160#3273550008FFE8
(1563316370.702662) can0 180#1883355327003510
(1563316370.702663) can0 182#00000000001540C9
(1563316370.702664) can0 1F9#E800188300000000
(1563316370.703683) can0 284#000000000000E066
(1563316370.703684) can0 285#000000000000E067
(1563316370.705228) can0 280#03C7800000009E40
(1563316370.706245) can0 002#1200000751535D0E
(1563316370.708557) can0 174#654654AA06000000
(1563316370.709580) can0 176#001E0026C80006
(1563316370.709581) can0 177#FE11400000
(1563316370.709582) can0 421#0800
(1563316370.710600) can0 2DE#0200800680000943
(1563316370.710601) can0 355#00000000000060
(1563316370.711599) can0 7E8#04410C0C1C000000
(1563316370.712621) can0 160#3273560008FFE8
(1563316370.712623) can0 180#1883356327003610
(1563316370.712623) can0 182#00000000001640C9
(1563316370.712624) can0 1F9#E800188300000000
(1563316370.713623) can0 245#FFE000180010FFE1
(1563316370.713624) can0 216#426C
(1563316370.713625) can0 2A0#FF7FFF7FFFFE00
(1563316370.714641) can0 351#0000000000004006
(1563316370.715704) can0 002#1200000762535D0E
(1563316370.718560) can0 174#654654AA07000000
(1563316370.719579) can0 215#FFFCFF00FFFF
(1563316370.719580) can0 176#001E0026C80007
(1563316370.719581) can0 177#FE11400000
(1563316370.720578) can0 2DE#0200800680000943
(1563316370.722139) can0 160#3273550008FFE8
(1563316370.723194) can0 180#1883355327003710
(1563316370.723196) can0 182#00000000001740C9
(1563316370.723196) can0 1F9#E800188300000000
(1563316370.723197) can0 284#000000000000E167
(1563316370.724203) can0 285#000000000000E168
(1563316370.725204) can0 7E8#03410D0000000000
(1563316370.725205) can0 280#03C3800000009D40
(1563316370.726224) can0 002#1200000773535D0E
(1563316370.728556) can0 174#654654AA08000000
(1563316370.729556) can0 176#001E0026C80008
(1563316370.729558) can0 177#FE11400000
(1563316370.730578) can0 2DE#0200800680000943
(1563316370.732349) can0 160#3273550008FFE8
(1563316370.733350) can0 180#1883355327003810
(1563316370.733351) can0 182#00000000001840C9
(1563316370.733352) can0 1F9#E800188300000000
(1563316370.733353) can0 216#426C
(1563316370.734371) can0 245#FFE000180010FFE2
(1563316370.734373) can0 2A0#FF7FFE7FFFFE00
(1563316370.734373) can0 354#0000000000001400
(1563316370.734374) can0 385#00000000000000
(1563316370.735685) can0 002#1200000704535D0E
(1563316370.738286) can0 7E8#03410E9600000000
(1563316370.739287) can0 174#654654AA09000000
(1563316370.739288) can0 215#FFFCFF00FFFF
(1563316370.739289) can0 176#001E0026C80009
(1563316370.739290) can0 177#FE11400000
(1563316370.740307) can0 2DE#0200800680000943
(1563316370.742681) can0 160#3273550008FFE8
(1563316370.743707) can0 180#1883355327003910
(1563316370.743708) can0 182#00000000001940C9
(1563316370.743709) can0 1F9#E800188300000000
(1563316370.743710) can0 284#000000000000E268
(1563316370.744723) can0 285#000000000000E269
(1563316370.745724) can0 280#03C5800000009B40
(1563316370.745725) can0 002#1200000715535D0E
(1563316370.748562) can0 174#654654AA0A000000
(1563316370.749557) can0 176#001E0026C8000A
(1563316370.749558) can0 177#FE11400000
(1563316370.750547) can0 2DE#0200800680000943
(1563316370.750548) can0 355#00000000000060
(1563316370.752599) can0 7E8#03410F6300000000
(1563316370.753621) can0 160#3273550008FFE8
(1563316370.753622) can0 180#1883355327003A10
(1563316370.753623) can0 182#00000000001A40C9
(1563316370.753623) can0 1F9#E800188300000000
(1563316370.754623) can0 216#426C
(1563316370.754624) can0 245#FFE000180010FFE3
(1563316370.754625) can0 2A0#FF7FFF7FFFFE00
(1563316370.754625) can0 60D#0806000000000000
(1563316370.755682) can0 002#1200000726535D0E
(1563316370.758559) can0 174#654654AA0B000000
(1563316370.759578) can0 215#FFFCFF00FFFF
(1563316370.759580) can0 176#001E0026C8000B
(1563316370.759580) can0 177#FE11400000
(1563316370.760577) can0 2DE#0200800680000943
(1563316370.763228) can0 284#000000000000E369
(1563316370.764224) can0 160#3273550008FFE8
(1563316370.764226) can0 180#1883355327003B10
(1563316370.764226) can0 182#00000000001B40C9
(1563316370.764228) can0 1F9#E800188300000000
(1563316370.765264) can0 285#000000000000E36A
(1563316370.765265) can0 280#03C380000000A240
(1563316370.766244) can0 5C5#4401F0C8000C007F
(1563316370.766246) can0 002#1200000737535D0E
(1563316370.767267) can0 7E8#0441100246000000
(1563316370.768537) can0 174#654654AA0C000000
(1563316370.769557) can0 176#001E0026C8000C
(1563316370.769558) can0 177#FE11400000
(1563316370.769559) can0 421#0800
(1563316370.770556) can0 2DE#0200800680000943
(1563316370.772909) can0 35D#8103000010000000
(1563316370.773933) can0 216#426C
(1563316370.773934) can0 245#FFE000180010FFE0
(1563316370.773934) can0 160#3273560008FFE8
(1563316370.773935) can0 180#186A356327003C10
(1563316370.774932) can0 182#00000000001C40C9
(1563316370.774934) can0 1F9#E800186A00000000
(1563316370.774934) can0 2A0#FF7FFF7FFFFE00
(1563316370.774935) can0 354#0000000000001400
(1563316370.775953) can0 002#12000007C8535D0E
(1563316370.778558) can0 003#6175630000000000
(1563316370.779581) can0 004#5468650000000000
(1563316370.779582) can0 005#4D616E00
(1563316370.779583) can0 177#FE11400000
(1563316370.779585) can0 560#7417AD
(1563316370.780599) can0 2DE#0200800680000943
(1563316370.780600) can0 7E8#0341111100000000
(1563316370.783037) can0 625#0280FF1D2000
(1563316370.784057) can0 284#000000000000E46A
(1563316370.784058) can0 285#000000000000E46B
(1563316370.784059) can0 160#3273550008FFE8
(1563316370.784060) can0 180#186A355327003D10
(1563316370.785077) can0 182#00000000001D40C9
(1563316370.785078) can0 1F9#E800186A00000000
(1563316370.786078) can0 280#03C5800000009B40
(1563316370.786079) can0 002#12000007D9535D0E
(1563316370.788535) can0 174#654654AA0E000000
(1563316370.789556) can0 176#001E0026C8000E
(1563316370.789557) can0 177#FE11400000
(1563316370.790556) can0 2DE#0200800680000943
(1563316370.790557) can0 355#00000000000060
(1563316370.793003) can0 358#0042800000000000
(1563316370.794056) can0 216#426C
(1563316370.794058) can0 245#FFE000180010FFE1
(1563316370.794058) can0 2A0#FF7FFE7FFFFE00
(1563316370.794059) can0 160#3273540008FFE8
(1563316370.795046) can0 180#186A354327003E10
(1563316370.795048) can0 182#00000000001E40C9
(1563316370.795048) can0 1F9#E800186A00000000
(1563316370.795049) can0 551#810E0080FF0280FF
(1563316370.795050) can0 580#00AA800000000000
(1563316370.796099) can0 6E2#00007A
(1563316370.796101) can0 002#13000007FA535D0E
(1563316370.797098) can0 7E8#0341130300000000
(1563316370.798560) can0 174#654654AA0F000000
(1563316370.799577) can0 215#FFFCFF00FFFF
(1563316370.799579) can0 176#001E0026C8000F
(1563316370.799579) can0 177#FE11400000
(1563316370.800577) can0 2DE#0200800680000943
(1563316370.803136) can0 284#000000000000E56B
(1563316370.804181) can0 285#000000000000E56C
(1563316370.804182) can0 160#3273550008FFE8
(1563316370.805203) can0 180#1883355327003F10
(1563316370.805204) can0 182#00000000001F40C9
(1563316370.805204) can0 1F9#E800188300000000
(1563316370.805205) can0 280#03C4800000009D40
(1563316370.806222) can0 002#12000007FB535D0E
(1563316370.808743) can0 174#654654AA00000000
(1563316370.809745) can0 176#001E0026C80000
(1563316370.809749) can0 7E8#0441153AFF000000
(1563316370.809750) can0 177#FE11400000
(1563316370.810726) can0 2DE#0200800680000943
(1563316370.813059) can0 351#0000000000004006
(1563316370.814077) can0 216#426C
(1563316370.814078) can0 245#FFE000180010FFE2
(1563316370.814079) can0 2A0#FF7FFF7FFFFE00
(1563316370.814079) can0 354#0000000000001400
(1563316370.815066) can0 160#3273550008FFE8
(1563316370.815067) can0 180#1883355327003010
(1563316370.815068) can0 182#00000000001040C9
(1563316370.815069) can0 1F9#E800188300000000
(1563316370.816118) can0 002#120000078C535D0E
(1563316370.818534) can0 174#654654AA01000000
(1563316370.819556) can0 215#FFFCFF00FFFF
(1563316370.819557) can0 176#001E0026C80001
(1563316370.819558) can0 177#FE11400000
(1563316370.820576) can0 2DE#0200800680000943
(1563316370.822597) can0 7E8#03411C0100000000
(1563316370.823597) can0 284#000000000000E66C
(1563316370.823599) can0 285#000000000000E66D
(1563316370.824682) can0 160#3273550008FFE8
(1563316370.825702) can0 180#1883355327003110
(1563316370.825704) can0 182#00000000001140C9
(1563316370.825704) can0 1F9#E800188300000000
(1563316370.825705) can0 280#03C2800000009B40
(1563316370.826701) can0 002#120000079D535D0E
(1563316370.828535) can0 174#654654AA02000000
(1563316370.829535) can0 176#001E0026C80002
(1563316370.829536) can0 177#FE11400000
(1563316370.829537) can0 421#0800
(1563316370.830555) can0 2DE#0200800680000943
(1563316370.830556) can0 355#00000000000060
(1563316370.832908) can0 385#00000000000000
(1563316370.833910) can0 216#426C
(1563316370.833912) can0 245#FFE000180010FFE3
(1563316370.833912) can0 2A0#FF7FFE7FFFFE00
(1563316370.834898) can0 160#3273550008FFE8
(1563316370.835974) can0 180#1883355327003210
(1563316370.835975) can0 182#00000000001240C9
(1563316370.835976) can0 1F9#E800188300000000
(1563316370.835977) can0 002#12000007AE535D0E
(1563316370.836975) can0 7E8#04411F0149000000
(1563316370.838583) can0 174#654654AA03000000
(1563316370.839553) can0 215#FFFCFF00FFFF
(1563316370.839555) can0 176#001E0026C80003
(1563316370.839556) can0 177#FE11400000
(1563316370.840567) can0 2DE#0200800680000943
(1563316370.843155) can0 284#000000000000E76D
(1563316370.844203) can0 285#000000000000E76E
(1563316370.845252) can0 160#3273550008FFE8
(1563316370.846229) can0 180#1883355327003310
(1563316370.846231) can0 182#00000000001340C9
(1563316370.846232) can0 002#12000007BF535D0E
(1563316370.846232) can0 1F9#E800188300000000
(1563316370.847235) can0 280#03C4800000009E40
(1563316370.848557) can0 174#654654AA04000000
(1563316370.849560) can0 176#001E0026C80004
(1563316370.849561) can0 177#FE11400000
(1563316370.850541) can0 2DE#0200800680000943
(1563316370.851580) can0 7E8#0441210000000000
(1563316370.853024) can0 60D#0806000000000000
(1563316370.854001) can0 216#426C
(1563316370.854003) can0 245#FFE000180010FFE0
(1563316370.854003) can0 2A0#FF7FFF7FFFFE00
(1563316370.854004) can0 354#0000000000001400
(1563316370.855250) can0 160#3273530008FFE8
(1563316370.856266) can0 180#1883353327003410
(1563316370.856267) can0 002#1200000740535D0E
(1563316370.856268) can0 182#00000000001440C9
(1563316370.856269) can0 1F9#E800188300000000
(1563316370.858596) can0 174#654654AA05000000
(1563316370.859578) can0 215#FFFCFF00FFFF
(1563316370.859585) can0 176#001E0026C80005
(1563316370.859587) can0 177#FE11400000
(1563316370.860551) can0 2DE#0200800680000943
(1563316370.863208) can0 284#000000000000E86E
(1563316370.864233) can0 285#000000000000E86F
(1563316370.865294) can0 7E8#0641247F1C469800
(1563316370.865296) can0 280#03C5800000009940
(1563316370.866223) can0 5C5#4401F0C8000C007F
(1563316370.866225) can0 002#1200000751535D0E
(1563316370.866226) can0 160#3273530008FFE8
(1563316370.866227) can0 180#1883353327003510
(1563316370.867288) can0 182#00000000001540C9
(1563316370.867289) can0 1F9#E800188300000000
(1563316370.868561) can0 174#654654AA06000000
(1563316370.869583) can0 176#001E0026C80006
(1563316370.869585) can0 177#FE11400000
(1563316370.870581) can0 2DE#0200800680000943
(1563316370.870582) can0 355#00000000000060
(1563316370.872944) can0 35D#8103000010000000
(1563316370.873952) can0 216#426C
(1563316370.873954) can0 245#FFE000180010FFE1
(1563316370.873955) can0 2A0#FF7FFF7FFFFE00
(1563316370.875744) can0 002#1200000762535D0E
(1563316370.876729) can0 160#3273530008FFE8
(1563316370.876730) can0 180#1883353327003610
(1563316370.876731) can0 182#00000000001640C9
(1563316370.876732) can0 1F9#E800188300000000
(1563316370.879541) can0 174#654654AA07000000
(1563316370.879542) can0 215#FFFCFF00FFFF
(1563316370.879543) can0 176#001E0026C80007
(1563316370.879544) can0 177#FE11400000
(1563316370.880509) can0 7E8#03412E0000000000
(1563316370.880510) can0 560#743000
(1563316370.880510) can0 2DE#0200800680000943
(1563316370.883098) can0 625#0280FF1D2000
(1563316370.884101) can0 284#000000000000E96F
(1563316370.884102) can0 285#000000000000E970
(1563316370.885441) can0 280#03C4800000009F40
(1563316370.886458) can0 002#1200000773535D0E
(1563316370.886460) can0 160#3273530008FFE8
(1563316370.886460) can0 180#18B5353327003710
(1563316370.887416) can0 182#00000000001740C9
(1563316370.887418) can0 1F9#E80018B500000000
(1563316370.888522) can0 174#654654AA08000000
(1563316370.889585) can0 176#001E0026C80008
(1563316370.889587) can0 177#FE11400000
(1563316370.889588) can0 421#0800
(1563316370.890568) can0 2DE#0200800680000943
(1563316370.893589) can0 7E8#03412F4400000000
(1563316370.893591) can0 358#0042800000000000
(1563316370.893591) can0 216#426C
(1563316370.893592) can0 245#FFE000180010FFE2
(1563316370.894547) can0 2A0#FF7FFF7FFFFE00
(1563316370.894548) can0 354#0000000000001400
(1563316370.895713) can0 002#1200000704535D0E
(1563316370.896727) can0 160#3273530008FFE8
(1563316370.896729) can0 180#18B5353327003810
(1563316370.897748) can0 182#00000000001840C9
(1563316370.897750) can0 1F9#E80018B500000000
(1563316370.897750) can0 551#810F0080FF0280FF
(1563316370.897751) can0 580#00AA800000000000
(1563316370.898730) can0 6E2#00007B
(1563316370.898731) can0 174#654654AA09000000
(1563316370.898732) can0 215#FFFCFF00FFFF
(1563316370.899759) can0 176#001E0026C80009
(1563316370.899761) can0 177#FE11400000
(1563316370.900814) can0 2DE#0200800680000943
(1563316370.903147) can0 284#000000000000EA70
(1563316370.904210) can0 285#000000000000EA71
(1563316370.905229) can0 280#03C4800000009A40
(1563316370.906194) can0 002#1200000715535D0E
(1563316370.907245) can0 160#3273540008FFE8
(1563316370.907246) can0 180#18B5354327003910
(1563316370.907252) can0 182#00000000001940C9
(1563316370.908273) can0 1F9#E80018B500000000
(1563316370.908275) can0 7E8#034130FF00000000
(1563316370.909240) can0 174#654654AA0A000000
(1563316370.909241) can0 176#001E0026C8000A
(1563316370.909241) can0 177#FE11400000
(1563316370.910356) can0 2DE#0200800680000943
(1563316370.911401) can0 355#00000000000060
(1563316370.913133) can0 245#FFE000180010FFE3
(1563316370.914124) can0 216#426C
(1563316370.914125) can0 2A0#FF7FFF7FFFFE00
(1563316370.914126) can0 351#0000000000004006
(1563316370.915728) can0 002#1200000726535D0E
(1563316370.916741) can0 160#3273540008FFE8
(1563316370.917749) can0 180#18B5354327003A10
(1563316370.917750) can0 182#00000000001A40C9
(1563316370.917751) can0 1F9#E80018B500000000
(1563316370.918763) can0 174#654654AA0B000000
(1563316370.918765) can0 215#FFFCFF00FFFF
(1563316370.919729) can0 176#001E0026C8000B
(1563316370.919731) can0 177#FE11400000
(1563316370.920751) can0 2DE#0200800680000943
(1563316370.921794) can0 7E8#044131FFFF000000
(1563316370.923173) can0 284#000000000000EB71
(1563316370.924232) can0 285#000000000000EB72
(1563316370.925228) can0 280#03C4800000009C40
(1563316370.926248) can0 002#1200000737535D0E
(1563316370.927292) can0 160#3273540008FFE8
(1563316370.927294) can0 180#189C354327003B10
(1563316370.928287) can0 182#00000000001B40C9
(1563316370.928289) can0 1F9#E800189C00000000
(1563316370.929273) can0 174#654654AA0C000000
(1563316370.929274) can0 176#001E0026C8000C
(1563316370.929275) can0 177#FE11400000
(1563316370.930302) can0 2DE#0200800680000943
(1563316370.932969) can0 385#00000000000000
(1563316370.933893) can0 216#426C
(1563316370.933895) can0 245#FFE000180010FFE0
(1563316370.933896) can0 2A0#FF7FFE7FFFFE00
(1563316370.933898) can0 354#0000000000001400
(1563316370.936001) can0 002#12000007C8535D0E
(1563316370.937000) can0 7E8#0441320000000000
(1563316370.937965) can0 160#3273540008FFE8
(1563316370.937966) can0 180#189C354327003C10
(1563316370.937966) can0 182#00000000001C40CA
(1563316370.938971) can0 1F9#E800189C00000000
(1563316370.938973) can0 174#654654AA0D000000
(1563316370.938974) can0 215#FFFCFF00FFFF
(1563316370.938974) can0 176#001E0026C8000D
(1563316370.940005) can0 177#FE11400000
(1563316370.941045) can0 2DE#0200800680000943
(1563316370.943173) can0 284#000000000000EC72
(1563316370.944225) can0 285#000000000000EC73
(1563316370.945243) can0 280#03C3800000009C40
(1563316370.946269) can0 002#12000007D9535D0E
(1563316370.947511) can0 160#3273540008FFE8
(1563316370.948457) can0 180#189C354327003D10
(1563316370.948459) can0 182#00000000001D40C9
(1563316370.948460) can0 1F9#E800189C00000000
(1563316370.949510) can0 174#654654AA0E000000
(1563316370.949514) can0 176#001E0026C8000E
(1563316370.949514) can0 003#6175637400000000
(1563316370.949515) can0 004#5468655400000000
(1563316370.950521) can0 005#4D616E7D
(1563316370.950522) can0 2DE#0200800680000943
(1563316370.950523) can0 355#00000000000060
(1563316370.952945) can0 60D#0806000000000000
(1563316370.953935) can0 216#426C
(1563316370.953937) can0 245#FFE000180010FFE1
(1563316370.953938) can0 2A0#FF7FFE7FFFFE00
(1563316370.955740) can0 002#12000007EA535D0E
(1563316370.957719) can0 160#3273540008FFE8
(1563316370.958728) can0 180#189C354327003E10
(1563316370.958735) can0 182#00000000001E40C9
(1563316370.958736) can0 1F9#E800189C00000000
(1563316370.958736) can0 174#654654AA0F000000
(1563316370.959695) can0 215#FFFCFF00FFFF
(1563316370.959696) can0 176#001E0026C8000F
(1563316370.959697) can0 177#FE11400000
(1563316370.960730) can0 2DE#0200800680000943
(1563316370.963903) can0 284#000000000000ED73
(1563316370.963905) can0 285#000000000000ED74
(1563316370.963906) can0 7E8#04413C0910000000
(1563316370.965053) can0 280#03C4800000009D40
(1563316370.966133) can0 5C5#4401F0C8000C007F
(1563316370.966136) can0 002#12000007FB535D0E
(1563316370.968149) can0 160#3273540008FFE8
(1563316370.969168) can0 180#189C354327003F10
(1563316370.969170) can0 174#654654AA00000000
(1563316370.969170) can0 182#00000000001F40C9
(1563316370.969171) can0 176#001E0026C80000
(1563316370.970114) can0 1F9#E800189C00000000
(1563316370.970115) can0 177#FE11400000
(1563316370.971155) can0 2DE#0200800680000943
(1563316370.972987) can0 35D#8103000010000000
(1563316370.973993) can0 216#426C
(1563316370.973995) can0 245#FFE000180010FFE2
(1563316370.973995) can0 2A0#FF7FFE7FFFFE00
(1563316370.973996) can0 354#0000000000001400
(1563316370.975726) can0 002#120000078C535D0E
(1563316370.978279) can0 160#3273540008FFE8
(1563316370.979256) can0 180#189C354327003010
(1563316370.979258) can0 174#654654AA01000000
(1563316370.979259) can0 182#00000000001040C9
(1563316370.979260) can0 176#001E0026C80001
(1563316370.980255) can0 1F9#E800189C00000000
(1563316370.980257) can0 177#FE11400000
(1563316370.980258) can0 215#FFFCFF00FFFF
(1563316370.980258) can0 560#743100
(1563316370.980259) can0 2DE#0200800680000943
(1563316370.981288) can0 7E8#064141003765A100
(1563316370.983041) can0 625#0280FF1D2000
(1563316370.984107) can0 284#000000000000EE74
(1563316370.984108) can0 285#000000000000EE75
(1563316370.985444) can0 280#03C5800000009B40
(1563316370.986455) can0 002#120000079D535D0E
(1563316370.988506) can0 160#3273540008FFE8
(1563316370.989523) can0 174#654654AA02000000
(1563316370.989525) can0 180#189C354327003110
(1563316370.989526) can0 176#001E0026C80002
(1563316370.989526) can0 182#00000000001140C9
(1563316370.990460) can0 177#FE11400000
(1563316370.990461) can0 1F9#E800189C00000000
(1563316370.990462) can0 2DE#0200800680000943
(1563316370.990462) can0 355#00000000000060
(1563316370.992447) can0 7E8#0441423480000000
(1563316370.993474) can0 358#0042800000000000
(1563316370.993475) can0 216#426C
(1563316370.993476) can0 245#FFE000180010FFE3
(1563316370.994487) can0 2A0#FF7FFF7FFFFE00
(1563316370.995635) can0 002#12000007AE535D0E
(1563316370.998448) can0 174#654654AA03000000
(1563316370.999511) can0 160#3273540008FFE8
(1563316370.999512) can0 176#001E0026C80003
(1563316370.999513) can0 180#1883354327003210
(1563316370.999514) can0 177#FE11400000
(1563316371.000529) can0 182#00000000001240C9
(1563316371.000531) can0 003#6175637466000000
(1563316371.000531) can0 004#5468655472000000
(1563316371.000532) can0 005#4D616E7D5D
(1563316371.000533) can0 551#81100080FF0280FF
(1563316371.001524) can0 580#00AA800000000000
(1563316371.001525) can0 6E2#000078
(1563316371.003164) can0 284#000000000000EF75
(1563316371.004226) can0 285#000000000000EF76
(1563316371.005200) can0 280#03C6800000009D40
(1563316371.006238) can0 002#12000007BF535D0E
(1563316371.007258) can0 7E8#044143004C000000
(1563316371.008517) can0 174#654654AA04000000
(1563316371.009543) can0 176#001E0026C80004
(1563316371.009544) can0 177#FE11400000
(1563316371.009545) can0 160#3273560008FFE8
(1563316371.009545) can0 180#1883356327003310
(1563316371.010482) can0 182#00000000001340C9
(1563316371.010484) can0 1F9#E800188300000000
(1563316371.010485) can0 421#0800
(1563316371.010487) can0 2DE#0200800680000943
(1563316371.013005) can0 351#0000000000004006
(1563316371.013998) can0 216#426C
(1563316371.014000) can0 245#FFE000180010FFE0
(1563316371.014001) can0 2A0#FF7FFF7FFFFE00
(1563316371.014002) can0 354#0000000000001400
(1563316371.015689) can0 002#1200000740535D0E
(1563316371.018552) can0 174#654654AA05000000
(1563316371.019497) can0 215#FFFCFF00FFFF
(1563316371.019500) can0 176#001E0026C80005
(1563316371.019502) can0 177#FE11400000
(1563316371.019503) can0 160#3273570008FFE8
(1563316371.020542) can0 180#1883357327003410
(1563316371.020543) can0 182#00000000001440C9
(1563316371.020544) can0 1F9#E800188300000000
(1563316371.020544) can0 2DE#0200800680000943
(1563316371.021583) can0 7E8#0441447F4D000000
(1563316371.023119) can0 284#000000000000F076
(1563316371.024210) can0 285#000000000000F077
(1563316371.025225) can0 280#03C4800000009C40
(1563316371.026221) can0 002#1200000751535D0E
(1563316371.028535) can0 174#654654AA06000000
(1563316371.029540) can0 176#001E0026C80006
(1563316371.029541) can0 177#FE11400000
(1563316371.029542) can0 160#3273570008FFE8
(1563316371.030513) can0 180#1883357327003510
(1563316371.030515) can0 182#00000000001540C9
(1563316371.030516) can0 1F9#E800188300000000
(1563316371.030517) can0 2DE#0200800680000943
(1563316371.031506) can0 355#00000000000060
(1563316371.032972) can0 385#00000000000000
(1563316371.033988) can0 216#426C
(1563316371.033990) can0 245#FFE000180010FFE1
(1563316371.033991) can0 2A0#FF7FFF7FFFFE00
(1563316371.036062) can0 7E8#0341450700000000
(1563316371.036063) can0 002#1200000762535D0E
(1563316371.038477) can0 174#654654AA07000000
(1563316371.039510) can0 215#FFFCFF00FFFF
(1563316371.039512) can0 176#001E0026C80007
(1563316371.039513) can0 177#FE11400000
(1563316371.040486) can0 160#3273570008FFE8
(1563316371.040487) can0 180#189C357327003610
(1563316371.040487) can0 182#00000000001640C9
(1563316371.040488) can0 1F9#E800189C00000000
(1563316371.041541) can0 2DE#0200800680000943
(1563316371.043122) can0 284#000000000000F177
(1563316371.044234) can0 285#000000000000F178
(1563316371.045247) can0 280#03C3800000009B40
(1563316371.046243) can0 002#1200000773535D0E
(1563316371.049127) can0 174#654654AA08000000
(1563316371.049128) can0 7E8#0341471100000000
(1563316371.049129) can0 176#001E0026C80008
(1563316371.050073) can0 177#FE11400000
(1563316371.050075) can0 160#3273550008FFE8
(1563316371.051089) can0 180#189C355327003710
(1563316371.051090) can0 182#00000000001740CA
(1563316371.051091) can0 1F9#E800189C00000000
(1563316371.051091) can0 2DE#0200800680000943
(1563316371.052947) can0 60D#0806000000000000
(1563316371.053933) can0 216#426C
(1563316371.053935) can0 245#FFE000180010FFE2
(1563316371.053937) can0 2A0#FF7FFF7FFFFE00
(1563316371.053938) can0 354#0000000000001400
(1563316371.055725) can0 002#1200000704535D0E
(1563316371.058531) can0 174#654654AA09000000
(1563316371.059542) can0 215#FFFCFF00FFFF
(1563316371.059543) can0 176#001E0026C80009
(1563316371.059544) can0 177#FE11400000
(1563316371.060518) can0 160#3273550008FFE8
(1563316371.060520) can0 180#189C355327003810
(1563316371.061482) can0 182#00000000001840C9
(1563316371.061484) can0 1F9#E800189C00000000
(1563316371.061485) can0 2DE#0200800680000943
(1563316371.063578) can0 7E8#0341490000000000
(1563316371.063580) can0 284#000000000000F278
(1563316371.063580) can0 285#000000000000F279
(1563316371.065090) can0 280#03C480000000A040
(1563316371.066112) can0 5C5#4401F0C8000C007F
(1563316371.066113) can0 002#1200000715535D0E
(1563316371.068533) can0 174#654654AA0A000000
(1563316371.069517) can0 176#001E0026C8000A
(1563316371.069518) can0 177#FE11400000
(1563316371.069519) can0 421#0800
(1563316371.070512) can0 2DE#0200800680000943
(1563316371.070514) can0 355#00000000000060
(1563316371.071514) can0 160#3273550008FFE8
(1563316371.071516) can0 180#1883355327003910
(1563316371.071517) can0 182#00000000001940CA
(1563316371.071518) can0 1F9#E800188300000000
(1563316371.072951) can0 35D#8103000010000000
(1563316371.073980) can0 216#426C
(1563316371.073982) can0 245#FFE000180010FFE3
(1563316371.073983) can0 2A0#FF7FFF7FFFFE00
(1563316371.075660) can0 002#1200000726535D0E
(1563316371.077751) can0 7E8#03414A0000000000
(1563316371.078729) can0 174#654654AA0B000000
(1563316371.078730) can0 215#FFFCFF00FFFF
(1563316371.079745) can0 176#001E0026C8000B
(1563316371.079746) can0 177#FE11400000
(1563316371.079747) can0 560#743200
(1563316371.080787) can0 2DE#0200800680000943
(1563316371.080788) can0 160#3273570008FFE8
(1563316371.081737) can0 180#1883357327003A10
(1563316371.081740) can0 182#00000000001A40CA
(1563316371.081740) can0 1F9#E800188300000000
(1563316371.083041) can0 625#0280FF1D2000
(1563316371.084017) can0 284#000000000000F379
(1563316371.084019) can0 285#000000000000F37A
(1563316371.085372) can0 280#03C4800000009C40
(1563316371.086360) can0 002#1200000737535D0E
(1563316371.088499) can0 174#654654AA0C000000
(1563316371.089449) can0 176#001E0026C8000C
(1563316371.089451) can0 177#FE11400000
(1563316371.090481) can0 2DE#0200800680000943
(1563316371.091501) can0 160#3273570008FFE8
(1563316371.091502) can0 180#1883357327003B10
(1563316371.091503) can0 182#00000000001B40CA
(1563316371.092535) can0 1F9#E800188300000000
(1563316371.092536) can0 7E8#03414C1100000000
(1563316371.093554) can0 358#0042800000000000
(1563316371.093555) can0 216#426C
(1563316371.093556) can0 245#FFE000180010FFE0
(1563316371.094561) can0 2A0#FF7FFE7FFFFE00
(1563316371.094563) can0 354#0000000000001400
(1563316371.095717) can0 002#12000007C8535D0E
(1563316371.098529) can0 174#654654AA0D000000
(1563316371.099539) can0 215#FFFCFF00FFFF
(1563316371.099541) can0 176#001E0026C8000D
(1563316371.099541) can0 177#FE11400000
(1563316371.100501) can0 2DE#0200800680000943
(1563316371.101531) can0 160#3273570008FFE8
(1563316371.101533) can0 180#1883357327003C10
(1563316371.102578) can0 182#00000000001C40C9
(1563316371.102580) can0 003#61756374667B0000
(1563316371.102581) can0 004#5468655472610000
(1563316371.102581) can0 005#4D616E7D
(1563316371.102587) can0 6E2#000079
(1563316371.103511) can0 284#000000000000F47A
(1563316371.103512) can0 285#000000000000F47B
(1563316371.105640) can0 280#03C580000000A040
(1563316371.106665) can0 002#12000007D9535D0E
(1563316371.106667) can0 7E8#04414D0000000000
(1563316371.108476) can0 174#654654AA0E000000
(1563316371.109517) can0 176#001E0026C8000E
(1563316371.109519) can0 177#FE11400000
(1563316371.110510) can0 2DE#0200800680000943
(1563316371.111536) can0 355#00000000000060
(1563316371.111538) can0 160#3273570008FFE8
(1563316371.112537) can0 180#189C357327003D10
(1563316371.112540) can0 182#00000000001D40C9
(1563316371.112540) can0 1F9#E800189C00000000
(1563316371.113572) can0 216#426C
(1563316371.113574) can0 245#FFE000180010FFE1
(1563316371.113575) can0 2A0#FF7FFE7FFFFE00
(1563316371.114585) can0 351#0000000000004006
(1563316371.115730) can0 002#12000007EA535D0E
(1563316371.118471) can0 174#654654AA0F000000
(1563316371.119514) can0 215#FFFCFF00FFFF
(1563316371.119515) can0 176#001E0026C8000F
(1563316371.119519) can0 177#FE11400000
(1563316371.120508) can0 2DE#0200800680000943
(1563316371.120510) can0 7E8#04414EFFFF000000
(1563316371.121527) can0 160#3273550008FFE8
(1563316371.122609) can0 180#189C355327003E10
(1563316371.122611) can0 182#00000000001E40C9
(1563316371.122612) can0 1F9#E800189C00000000
(1563316371.123600) can0 284#000000000000F57B
(1563316371.123602) can0 285#000000000000F57C
(1563316371.125103) can0 280#03C5800000009C40
(1563316371.126122) can0 002#12000007FB535D0E
(1563316371.128499) can0 174#654654AA00000000
(1563316371.129475) can0 176#001E0026C80000
(1563316371.129477) can0 177#FE11400000
(1563316371.129478) can0 421#0800
(1563316371.130506) can0 2DE#0200800680000943
(1563316371.131853) can0 160#3273550008FFE8
(1563316371.132943) can0 180#189C355327003F10
(1563316371.132945) can0 182#00000000001F40C9
(1563316371.132946) can0 1F9#E800189C00000000
(1563316371.133941) can0 385#00000000000000
(1563316371.133943) can0 216#426C
(1563316371.133943) can0 245#FFE000180010FFE2
(1563316371.133944) can0 2A0#FF7FFF7FFFFE00
(1563316371.133945) can0 354#0000000000001400
(1563316371.134916) can0 7E8#0341510100000000
(1563316371.135948) can0 002#120000078C535D0E
(1563316371.138502) can0 174#654654AA01000000
(1563316371.139519) can0 215#FFFCFF00FFFF
(1563316371.139521) can0 176#001E0026C80001
(1563316371.139522) can0 177#FE11400000
(1563316371.140522) can0 2DE#0200800680000943
(1563316371.142111) can0 160#3273540008FFE8
(1563316371.143078) can0 180#189C354327003010
(1563316371.143079) can0 182#00000000001040C9
(1563316371.143080) can0 1F9#E800189C00000000
(1563316371.144106) can0 284#000000000000F67C
(1563316371.144108) can0 285#000000000000F67D
(1563316371.145249) can0 280#03C2800000009D40
(1563316371.146268) can0 002#120000079D535D0E
(1563316371.148307) can0 7E8#0641010007E50000
(1563316371.149246) can0 174#654654AA02000000
(1563316371.149248) can0 176#001E0026C80002
(1563316371.149250) can0 177#FE11400000
(1563316371.150307) can0 2DE#0200800680000943
(1563316371.151332) can0 355#00000000000060
(1563316371.152370) can0 160#3273550008FFE8
(1563316371.153373) can0 180#1883355327003110
(1563316371.153375) can0 182#00000000001140C9
(1563316371.153376) can0 1F9#E800188300000000
(1563316371.153382) can0 216#426C
(1563316371.154333) can0 245#FFE000180010FFE3
(1563316371.154334) can0 2A0#FF7FFF7FFFFE00
(1563316371.154335) can0 60D#0806000000000000
(1563316371.155704) can0 002#12000007AE535D0E
(1563316371.158486) can0 174#654654AA03000000
(1563316371.159501) can0 215#FFFCFF00FFFF
(1563316371.159502) can0 176#001E0026C80003
(1563316371.159503) can0 177#FE11400000
(1563316371.160478) can0 2DE#0200800680000943
(1563316371.162727) can0 160#3273570008FFE8
(1563316371.163726) can0 180#1883357327003210
(1563316371.163728) can0 182#00000000001240C9
(1563316371.163729) can0 1F9#E800188300000000
(1563316371.163730) can0 284#000000000000F77D
(1563316371.164690) can0 285#000000000000F77E
(1563316371.164692) can0 7E8#0441030200000000
(1563316371.165722) can0 280#03C4800000009C40
(1563316371.165724) can0 5C5#4401F0C8000C007F
(1563316371.165725) can0 002#12000007BF535D0E
(1563316371.168426) can0 174#654654AA04000000
(1563316371.169484) can0 176#001E0026C80004
(1563316371.169485) can0 177#FE11400000
(1563316371.170460) can0 2DE#0200800680000943
(1563316371.172857) can0 35D#8103000010000000
(1563316371.173890) can0 160#3273560008FFE8
(1563316371.173892) can0 180#1883356327003310
(1563316371.173893) can0 182#00000000001340C9
(1563316371.173893) can0 1F9#E800188300000000
(1563316371.174839) can0 216#426C
(1563316371.174841) can0 245#FFE000180010FFE0
(1563316371.174841) can0 2A0#FF7FFF7FFFFE00
(1563316371.174843) can0 354#0000000000001400
(1563316371.175855) can0 002#1200000740535D0E
(1563316371.176918) can0 7E8#0341046200000000
(1563316371.178426) can0 174#654654AA05000000
(1563316371.179465) can0 215#FFFCFF00FFFF
(1563316371.179466) can0 176#001E0026C80005
(1563316371.179467) can0 177#FE11400000
(1563316371.179468) can0 560#741032
(1563316371.180470) can0 2DE#0200800680000943
(1563316371.183084) can0 160#3273570008FFE8
(1563316371.184097) can0 180#1883357327003410
(1563316371.184099) can0 182#00000000001440C9
(1563316371.184099) can0 1F9#E800188300000000
(1563316371.184100) can0 284#000000000000F87E
(1563316371.185037) can0 285#000000000000F87F
(1563316371.185038) can0 625#0280FF1D2000
(1563316371.186098) can0 280#03C580000000A040
(1563316371.186099) can0 002#1200000751535D0E
(1563316371.188480) can0 174#654654AA06000000
(1563316371.189504) can0 176#001E0026C80006
(1563316371.189506) can0 177#FE11400000
(1563316371.189507) can0 421#0800
(1563316371.190447) can0 2DE#0200800680000943
(1563316371.190448) can0 355#00000000000060
(1563316371.192538) can0 7E8#0341058100000000
(1563316371.193473) can0 358#0042800000000000
(1563316371.193477) can0 216#426C
(1563316371.193479) can0 245#FFE000180010FFE1
(1563316371.193480) can0 160#3273550008FFE8
(1563316371.194535) can0 180#189C355327003510
(1563316371.194537) can0 182#00000000001540C9
(1563316371.194537) can0 1F9#E800189C00000000
(1563316371.194538) can0 2A0#FF7FFF7FFFFE00
(1563316371.195707) can0 002#1200000762535D0E
(1563316371.198485) can0 174#654654AA07000000
(1563316371.199498) can0 215#FFFCFF00FFFF
(1563316371.199500) can0 176#001E0026C80007
(1563316371.199501) can0 177#FE11400000
(1563316371.200480) can0 2DE#0200800680000943
(1563316371.203186) can0 284#000000000000F97F
(1563316371.204244) can0 285#000000000000F980
(1563316371.204251) can0 160#3273540008FFE8
(1563316371.204252) can0 180#189C354327003610
(1563316371.204252) can0 182#00000000001640C9
(1563316371.205177) can0 1F9#E800189C00000000
(1563316371.205179) can0 551#81110080FF0280FF
(1563316371.205180) can0 580#00AA800000000000
(1563316371.205181) can0 6E2#00007A
(1563316371.206204) can0 003#61756374667B4900
(1563316371.206205) can0 004#5468655472617300
(1563316371.208292) can0 005#4D616E7D5D
(1563316371.209216) can0 174#654654AA08000000
(1563316371.209218) can0 176#001E0026C80008
(1563316371.209219) can0 177#FE11400000
(1563316371.210353) can0 2DE#0200800680000943
(1563316371.213029) can0 351#0000000000004006
(1563316371.214037) can0 216#426C
(1563316371.214039) can0 245#FFE000180010FFE2
(1563316371.214040) can0 2A0#FF7FFF7FFFFE00
(1563316371.214041) can0 160#3273540008FFE8
(1563316371.215007) can0 180#189C354327003710
(1563316371.215008) can0 182#00000000001740C9
(1563316371.215008) can0 1F9#E800189C00000000
(1563316371.215009) can0 354#0000000000001400
(1563316371.216016) can0 002#1200000704535D0E
(1563316371.218479) can0 174#654654AA09000000
(1563316371.219452) can0 215#FFFCFF00FFFF
(1563316371.219453) can0 176#001E0026C80009
(1563316371.219454) can0 177#FE11400000
(1563316371.220454) can0 2DE#0200800680000943
(1563316371.222541) can0 7E8#0341077C00000000
(1563316371.223479) can0 284#000000000000FA80
(1563316371.223480) can0 285#000000000000FA81
(1563316371.224539) can0 160#3273540008FFE8
(1563316371.224541) can0 180#1883354327003810
(1563316371.224542) can0 182#00000000001840C9
(1563316371.225561) can0 1F9#E800188300000000
(1563316371.225563) can0 280#03C5800000009E40
(1563316371.226550) can0 002#1200000715535D0E
(1563316371.228484) can0 174#654654AA0A000000
(1563316371.229407) can0 176#001E0026C8000A
(1563316371.229408) can0 177#FE11400000
(1563316371.230443) can0 2DE#0200800680000943
(1563316371.230444) can0 355#00000000000060
(1563316371.232835) can0 385#00000000000000
(1563316371.233828) can0 216#426C
(1563316371.233830) can0 245#FFE000180010FFE3
(1563316371.233831) can0 2A0#FF7FFF7FFFFE00
(1563316371.234778) can0 160#3273560008FFE8
(1563316371.234779) can0 180#1883356327003910
(1563316371.234780) can0 182#00000000001940C9
(1563316371.235847) can0 1F9#E800188300000000
(1563316371.235851) can0 002#1200000726535D0E
(1563316371.236832) can0 7E8#04410C0C1C000000
(1563316371.238475) can0 174#654654AA0B000000
(1563316371.239477) can0 176#001E0026C8000B
(1563316371.239480) can0 215#FFFCFF00FFFF
(1563316371.239481) can0 177#FE11400000
(1563316371.240473) can0 2DE#0200800680000943
(1563316371.243236) can0 284#000000000000FB81
(1563316371.244243) can0 285#000000000000FB82
(1563316371.245269) can0 160#3273560008FFE8
(1563316371.245270) can0 180#1883356327003A10
(1563316371.245271) can0 182#00000000001A40C9
(1563316371.245272) can0 1F9#E800188300000000
(1563316371.246205) can0 280#03C3800000009B40
(1563316371.246206) can0 002#1200000737535D0E
(1563316371.248461) can0 174#654654AA0C000000
(1563316371.249414) can0 176#001E0026C8000C
(1563316371.249415) can0 177#FE11400000
(1563316371.249415) can0 421#0800
(1563316371.250471) can0 2DE#0200800680000943
(1563316371.251496) can0 7E8#03410D0000000000
(1563316371.252827) can0 60D#0806000000000000
(1563316371.253848) can0 216#426C
(1563316371.253850) can0 245#FFE000180010FFE0
(1563316371.253851) can0 2A0#FF7FFF7FFFFE00
(1563316371.253851) can0 354#0000000000001400
(1563316371.254811) can0 160#3273560008FFE8
(1563316371.255833) can0 180#1883356327003B10
(1563316371.255834) can0 182#00000000001B40C9
(1563316371.255835) can0 1F9#E800188300000000
(1563316371.255836) can0 002#12000007C8535D0E
(1563316371.258483) can0 174#654654AA0D000000
(1563316371.259489) can0 215#FFFCFF00FFFF
(1563316371.259490) can0 176#001E0026C8000D
(1563316371.259492) can0 177#FE11400000
(1563316371.260470) can0 2DE#0200800680000943
(1563316371.263135) can0 284#000000000000FC82
(1563316371.264185) can0 285#000000000000FC83
(1563316371.265226) can0 160#3273570008FFE8
(1563316371.265228) can0 180#189C357327003C10
(1563316371.266224) can0 182#00000000001C40C9
(1563316371.266226) can0 1F9#E800189C00000000
(1563316371.266226) can0 002#12000007D9535D0E
(1563316371.266227) can0 280#03C3800000009D40
(1563316371.267181) can0 5C5#4401F0C8000C007F
(1563316371.267182) can0 7E8#03410E9400000000
(1563316371.268430) can0 174#654654AA0E000000
(1563316371.269472) can0 176#001E0026C8000E
(1563316371.269474) can0 177#FE11400000
(1563316371.270438) can0 2DE#0200800680000943
(1563316371.270440) can0 355#00000000000060
(1563316371.272897) can0 35D#8103000010000000
(1563316371.273888) can0 216#426C
(1563316371.273890) can0 245#FFE000180010FFE1
(1563316371.273890) can0 2A0#FF7FFF7FFFFE00
(1563316371.275479) can0 160#3273540008FFE8
(1563316371.276498) can0 180#189C354327003D10
(1563316371.276499) can0 002#12000007EA535D0E
(1563316371.276500) can0 003#61756374667B496D
(1563316371.276501) can0 004#5468655472617368
(1563316371.279102) can0 005#4D616E7D
(1563316371.279104) can0 215#FFFCFF00FFFF
(1563316371.279104) can0 176#001E0026C8000F
(1563316371.280114) can0 7E8#03410F6300000000
(1563316371.280116) can0 177#FE11400000
(1563316371.280116) can0 560#741134
(1563316371.281062) can0 2DE#0200800680000943
(1563316371.283072) can0 625#0280FF1D2000
(1563316371.284079) can0 284#000000000000FD83
(1563316371.284081) can0 285#000000000000FD84
(1563316371.285432) can0 280#03C4800000009A40
(1563316371.286454) can0 160#3273540008FFE8
(1563316371.286456) can0 002#12000007FB535D0E
(1563316371.286456) can0 180#189C354327003E10
(1563316371.286457) can0 182#00000000001E40C9
(1563316371.287396) can0 1F9#E800189C00000000
(1563316371.288442) can0 174#654654AA00000000
(1563316371.289473) can0 176#001E0026C80000
(1563316371.289475) can0 177#FE11400000
(1563316371.290473) can0 2DE#0200800680000943
(1563316371.293164) can0 358#0042800000000000
(1563316371.293166) can0 216#426C
(1563316371.294145) can0 245#FFE000180010FFE2
(1563316371.294147) can0 2A0#FF7FFF7FFFFE00
(1563316371.294148) can0 354#0000000000001400
(1563316371.294148) can0 7E8#0441100253000000
(1563316371.295701) can0 002#120000078C535D0E
(1563316371.296734) can0 160#3273540008FFE8
(1563316371.296736) can0 180#189C354327003F10
(1563316371.296737) can0 182#00000000001F40C9
(1563316371.296738) can0 1F9#E800189C00000000
(1563316371.298450) can0 174#654654AA01000000
(1563316371.299458) can0 176#001E0026C80001
(1563316371.299459) can0 215#FFFCFF00FFFF
(1563316371.299460) can0 177#FE11400000
(1563316371.300456) can0 2DE#0200800680000943
(1563316371.303176) can0 284#000000000000FE84
(1563316371.304202) can0 285#000000000000FE85
(1563316371.305209) can0 280#03C5800000009F40
(1563316371.306228) can0 002#120000079D535D0E
(1563316371.306230) can0 160#3273540008FFE8
(1563316371.306231) can0 180#189C354327003010
(1563316371.307207) can0 182#00000000001040C9
(1563316371.307209) can0 1F9#E800189C00000000
(1563316371.307210) can0 551#81120080FF0280FF
(1563316371.307211) can0 580#00AA800000000000
(1563316371.308228) can0 6E2#00007B
(1563316371.309287) can0 174#654654AA02000000
(1563316371.309289) can0 176#001E0026C80002
(1563316371.309290) can0 7E8#0341111100000000
(1563316371.309290) can0 177#FE11400000
(1563316371.309291) can0 421#0800
(1563316371.310350) can0 2DE#0200800680000943
(1563316371.311408) can0 355#00000000000060
(1563316371.312919) can0 351#0000000000004006
(1563316371.313897) can0 216#426C
(1563316371.313899) can0 245#FFE000180010FFE3
(1563316371.313900) can0 2A0#FF7FFF7FFFFE00
(1563316371.315720) can0 002#12000007AE535D0E
(1563316371.316742) can0 160#3273530008FFE8
(1563316371.316744) can0 180#189C353327003110
(1563316371.317739) can0 182#00000000001140C9
(1563316371.317741) can0 1F9#E800189C00000000
(1563316371.318759) can0 174#654654AA03000000
(1563316371.318760) can0 176#001E0026C80003
(1563316371.319717) can0 215#FFFCFF00FFFF
(1563316371.319719) can0 177#FE11400000
(1563316371.320751) can0 2DE#0200800680000943
(1563316371.321783) can0 7E8#0341130300000000
(1563316371.323170) can0 284#000000000000FF85
(1563316371.324201) can0 285#000000000000FF86
(1563316371.325220) can0 280#03C5800000009940
(1563316371.326240) can0 002#12000007BF535D0E
(1563316371.327269) can0 160#3273540008FFE8
(1563316371.327271) can0 180#189C354327003210
(1563316371.327272) can0 182#00000000001240C9
(1563316371.327273) can0 1F9#E800189C00000000
(1563316371.328416) can0 174#654654AA04000000
(1563316371.329454) can0 176#001E0026C80004
(1563316371.329456) can0 177#FE11400000
(1563316371.330432) can0 2DE#0200800680000943
(1563316371.332937) can0 385#00000000000000
(1563316371.333843) can0 216#426C
(1563316371.333845) can0 245#FFE000180010FFE0
(1563316371.333846) can0 2A0#FF7FFE7FFFFE00
(1563316371.333846) can0 354#0000000000001400
(1563316371.335978) can0 7E8#04411538FF000000
(1563316371.335980) can0 002#1200000740535D0E
(1563316371.336916) can0 160#3273540008FFE8
(1563316371.336917) can0 180#18B5354327003310
(1563316371.337963) can0 182#00000000001340C9
(1563316371.337965) can0 1F9#E80018B500000000
(1563316371.339011) can0 174#654654AA05000000
(1563316371.339013) can0 176#001E0026C80005
(1563316371.339013) can0 215#FFFCFF00FFFF
(1563316371.339989) can0 177#FE11400000
(1563316371.341033) can0 2DE#0200800680000943
(1563316371.343264) can0 284#0000000000000086
(1563316371.344259) can0 285#0000000000000087
(1563316371.345283) can0 280#03C4800000009D40
(1563316371.346282) can0 002#1200000751535D0E
(1563316371.347296) can0 160#3273540008FFE8
(1563316371.347298) can0 180#18B5354327003410
(1563316371.348239) can0 182#00000000001440C9
(1563316371.348241) can0 1F9#E80018B500000000
(1563316371.349310) can0 174#654654AA06000000
(1563316371.349312) can0 7E8#03411C0100000000
(1563316371.349312) can0 176#001E0026C80006
(1563316371.349319) can0 177#FE11400000
(1563316371.350290) can0 2DE#0200800680000943
(1563316371.351328) can0 355#00000000000060
(1563316371.352819) can0 60D#0806000000000000
(1563316371.353824) can0 216#426C
(1563316371.353826) can0 245#FFE000180010FFE1
(1563316371.353827) can0 2A0#FF7FFF7FFFFE00
(1563316371.355755) can0 002#1200000762535D0E
(1563316371.357309) can0 160#3273540008FFE8
(1563316371.358319) can0 180#18B5354327003510
(1563316371.358320) can0 182#00000000001540C9
(1563316371.358321) can0 1F9#E80018B500000000
(1563316371.359313) can0 174#654654AA07000000
(1563316371.359315) can0 176#001E0026C80007
(1563316371.359315) can0 215#FFFCFF00FFFF
(1563316371.359316) can0 177#FE11400000
(1563316371.360316) can0 2DE#0200800680000943
(1563316371.363344) can0 7E8#04411F0149000000
(1563316371.363346) can0 284#0000000000000187
(1563316371.364307) can0 285#0000000000000188
(1563316371.365364) can0 280#03C5800000009E40
(1563316371.365365) can0 5C5#4401F0C8000C007F
(1563316371.366348) can0 002#1200000773535D0E
(1563316371.367381) can0 160#3273530008FFE8
(1563316371.368430) can0 180#18B5353327003610
(1563316371.368432) can0 182#00000000001640C9
(1563316371.368432) can0 1F9#E80018B500000000
(1563316371.369421) can0 174#654654AA08000000
(1563316371.369423) can0 176#001E0026C80008
(1563316371.369423) can0 177#FE11400000
(1563316371.369424) can0 421#0800
(1563316371.370393) can0 2DE#0200800680000943
(1563316371.372806) can0 35D#8103000010000000
(1563316371.373819) can0 216#426C
(1563316371.373822) can0 245#FFE000180010FFE2
(1563316371.373823) can0 2A0#FF7FFF7FFFFE00
(1563316371.373823) can0 354#0000000000001400
(1563316371.375685) can0 002#1200000704535D0E
(1563316371.377898) can0 160#3273540008FFE8
(1563316371.378912) can0 180#18B5354327003710
(1563316371.378914) can0 182#00000000001740C9
(1563316371.378914) can0 174#654654AA09000000
(1563316371.378915) can0 1F9#E80018B500000000
(1563316371.379899) can0 176#001E0026C80009
(1563316371.379900) can0 215#FFFCFF00FFFF
(1563316371.379901) can0 177#FE11400000
(1563316371.379902) can0 7E8#0441210000000000
(1563316371.379902) can0 560#741231
(1563316371.380858) can0 2DE#0200800680000943
(1563316371.382961) can0 625#0280FF1D2000
(1563316371.384037) can0 284#0000000000000288
(1563316371.384039) can0 285#0000000000000289
(1563316371.385434) can0 280#03C4800000009D40
(1563316371.386454) can0 002#1200000715535D0E
(1563316371.387941) can0 160#3273530008FFE8
(1563316371.388948) can0 180#18B5353327003810
(1563316371.388949) can0 182#00000000001840C9
(1563316371.388950) can0 174#654654AA0A000000
(1563316371.388951) can0 1F9#E80018B500000000
(1563316371.389914) can0 176#001E0026C8000A
(1563316371.389915) can0 177#FE11400000
(1563316371.390948) can0 2DE#0200800680000943
(1563316371.390950) can0 355#00000000000060
(1563316371.391963) can0 7E8#0641247F3B469800
(1563316371.392946) can0 358#0042800000000000
(1563316371.393979) can0 216#426C
(1563316371.393980) can0 245#FFE000180010FFE3
(1563316371.393981) can0 2A0#FF7FFF7FFFFE00
(1563316371.395724) can0 002#1200000726535D0E
(1563316371.398185) can0 160#3273530008FFE8
(1563316371.399207) can0 180#18B5353327003910
(1563316371.399208) can0 174#654654AA0B000000
(1563316371.399209) can0 182#00000000001940C9
(1563316371.399215) can0 176#001E0026C8000B
(1563316371.400144) can0 1F9#E80018B500000000
(1563316371.400145) can0 177#FE11400000
(1563316371.400146) can0 215#FFFCFF00FFFF
(1563316371.401176) can0 2DE#0200800680000943
(1563316371.403173) can0 284#0000000000000389
(1563316371.404160) can0 285#000000000000038A
(1563316371.406202) can0 280#03C4800000009C40
(1563316371.406203) can0 002#1200000737535D0E
(1563316371.406204) can0 7E8#03412E0000000000
(1563316371.408407) can0 174#654654AA0C000000
(1563316371.409434) can0 160#3273530008FFE8
(1563316371.409436) can0 176#001E0026C8000C
(1563316371.409437) can0 180#18B5353327003A10
(1563316371.409437) can0 177#FE11400000
(1563316371.410367) can0 182#00000000001A40C9
(1563316371.410379) can0 1F9#E80018B500000000
(1563316371.410380) can0 551#81120080FF0280FF
(1563316371.410381) can0 580#00AA800000000000
(1563316371.411426) can0 2DE#0200800680000943
(1563316371.411428) can0 6E2#000078
(1563316371.412867) can0 351#0000000000004006
(1563316371.413887) can0 216#426C
(1563316371.413889) can0 245#FFE000180010FFE0
(1563316371.413890) can0 2A0#FF7FFE7FFFFE00
(1563316371.413890) can0 354#0000000000001400
(1563316371.415704) can0 002#12000007C8535D0E
(1563316371.418438) can0 174#654654AA0D000000
(1563316371.419428) can0 160#3273540008FFE8
(1563316371.419430) can0 176#001E0026C8000D
(1563316371.419431) can0 180#18B5354327003B10
(1563316371.419431) can0 177#FE11400000
(1563316371.420455) can0 182#00000000001B40C9
(1563316371.420457) can0 1F9#E80018B500000000
(1563316371.420458) can0 215#FFFCFF00FFFF
(1563316371.420458) can0 2DE#0200800680000943
(1563316371.421466) can0 7E8#03412F4400000000
(1563316371.423115) can0 284#000000000000048A
(1563316371.424180) can0 285#000000000000048B
(1563316371.425197) can0 280#03C4800000009D40
(1563316371.426191) can0 002#12000007D9535D0E
(1563316371.428368) can0 174#654654AA0E000000
(1563316371.429428) can0 176#001E0026C8000E
(1563316371.429429) can0 177#FE11400000
(1563316371.429430) can0 160#3273530008FFE8
(1563316371.429431) can0 180#18B5353327003C10
(1563316371.430343) can0 182#00000000001C40C9
(1563316371.430344) can0 1F9#E80018B500000000
(1563316371.430345) can0 421#0800
(1563316371.430345) can0 2DE#0200800680000943
(1563316371.430346) can0 355#00000000000060
(1563316371.432753) can0 385#00000000000000
(1563316371.433778) can0 216#426C
(1563316371.433779) can0 245#FFE000180010FFE1
(1563316371.433780) can0 2A0#FF7FFE7FFFFE00
(1563316371.434782) can0 7E8#034130FF00000000
(1563316371.435777) can0 002#12000007EA535D0E
(1563316371.438404) can0 174#654654AA0F000000
(1563316371.439392) can0 176#001E0026C8000F
(1563316371.439394) can0 215#FFFCFF00FFFF
(1563316371.439395) can0 177#FE11400000
(1563316371.439395) can0 160#3273530008FFE8
(1563316371.440397) can0 180#18B5353327003D10
(1563316371.440399) can0 182#00000000001D40C9
(1563316371.440400) can0 1F9#E80018B500000000
(1563316371.440401) can0 2DE#0200800680000943
(1563316371.443137) can0 284#000000000000058B
(1563316371.444156) can0 285#000000000000058C
(1563316371.445214) can0 280#03C4800000009E40
(1563316371.446217) can0 002#12000007FB535D0E
(1563316371.448955) can0 174#654654AA00000000
(1563316371.448957) can0 176#001E0026C80000
(1563316371.448957) can0 177#FE11400000
(1563316371.449936) can0 160#3273530008FFE8
(1563316371.449938) can0 180#18B5353327003E10
(1563316371.449939) can0 182#00000000001E40C9
(1563316371.450967) can0 1F9#E80018B500000000
(1563316371.450969) can0 2DE#0200800680000943
(1563316371.450970) can0 7E8#044131FFFF000000
(1563316371.452858) can0 60D#0806000000000000
(1563316371.453882) can0 216#426C
(1563316371.453884) can0 245#FFE000180010FFE2
(1563316371.453885) can0 2A0#FF7FFF7FFFFE00
(1563316371.453885) can0 354#0000000000001400
(1563316371.455683) can0 002#120000078C535D0E
(1563316371.458417) can0 174#654654AA01000000
(1563316371.459410) can0 176#001E0026C80001
(1563316371.459412) can0 215#FFFCFF00FFFF
(1563316371.459412) can0 177#FE11400000
(1563316371.460424) can0 160#3273530008FFE8
(1563316371.460426) can0 180#18B5353327003F10
(1563316371.460427) can0 182#00000000001F40C9
(1563316371.460428) can0 1F9#E80018B500000000
(1563316371.461371) can0 2DE#0200800680000943
(1563316371.462421) can0 7E8#0441320000000000
(1563316371.463399) can0 284#000000000000068C
(1563316371.463400) can0 285#000000000000068D
(1563316371.465113) can0 280#03C5800000009B40
(1563316371.466106) can0 5C5#4401F0C8000C007F
(1563316371.466108) can0 002#120000079D535D0E
(1563316371.468435) can0 174#654654AA02000000
(1563316371.469424) can0 176#001E0026C80002
(1563316371.469426) can0 177#FE11400000
(1563316371.470374) can0 160#3273530008FFE8
(1563316371.470375) can0 180#18B5353327003010
(1563316371.470375) can0 182#00000000001040C9
(1563316371.471420) can0 1F9#E80018B500000000
(1563316371.471421) can0 2DE#0200800680000943
(1563316371.471421) can0 355#00000000000060
(1563316371.472746) can0 35D#8103000010000000
(1563316371.473763) can0 245#FFE000180010FFE3
(1563316371.473764) can0 216#426C
(1563316371.473765) can0 2A0#FF7FFE7FFFFE00
(1563316371.475659) can0 002#12000007AE535D0E
(1563316371.476726) can0 7E8#0341336300000000
(1563316371.478415) can0 174#654654AA03000000
(1563316371.479423) can0 176#001E0026C80003
(1563316371.479424) can0 215#FFFCFF00FFFF
(1563316371.479424) can0 177#FE11400000
(1563316371.479425) can0 560#74134C
(1563316371.480337) can0 2DE#0200800680000943
(1563316371.480338) can0 160#3273530008FFE8
(1563316371.481433) can0 180#18B5353327003110
(1563316371.481435) can0 182#00000000001140C9
(1563316371.481435) can0 1F9#E80018B500000000
(1563316371.483070) can0 625#0280FF1D2000
(1563316371.484077) can0 284#000000000000078D
(1563316371.484077) can0 285#000000000000078E
(1563316371.485482) can0 280#03C480000000A140
(1563316371.486494) can0 002#12000007BF535D0E
(1563316371.488404) can0 174#654654AA04000000
(1563316371.489351) can0 176#001E0026C80004
(1563316371.489352) can0 177#FE11400000
(1563316371.489352) can0 421#0800
(1563316371.490339) can0 2DE#0200800680000943
(1563316371.490340) can0 160#3273530008FFE8
(1563316371.491424) can0 180#18CE353327003210
(1563316371.491425) can0 182#00000000001240C9
(1563316371.491426) can0 1F9#E80018CE00000000
(1563316371.492452) can0 7E8#04413C0910000000
(1563316371.493463) can0 358#0042800000000000
(1563316371.493464) can0 216#426C
(1563316371.493464) can0 245#FFE000180010FFE0
(1563316371.493465) can0 2A0#FF7FFE7FFFFE00
(1563316371.494480) can0 354#0000000000001400
(1563316371.495734) can0 002#1200000740535D0E
(1563316371.498422) can0 174#654654AA05000000
(1563316371.499386) can0 176#001E0026C80005
(1563316371.499387) can0 215#FFFCFF00FFFF
(1563316371.499387) can0 177#FE11400000
(1563316371.500419) can0 2DE#0200800680000943
(1563316371.501454) can0 160#3263530008FFE8
(1563316371.501455) can0 180#18CE353326003310
(1563316371.501456) can0 182#00000000001340C9
(1563316371.501456) can0 1F9#E80018CE00000000
(1563316371.503190) can0 284#000000000000088E
(1563316371.504170) can0 285#000000000000088F
(1563316371.505245) can0 280#03C5800000009B40
(1563316371.506268) can0 7E8#064141003765A100
(1563316371.506269) can0 002#1200000751535D0E
(1563316371.508399) can0 174#654654AA06000000
(1563316371.509413) can0 176#001E0026C80006
(1563316371.509414) can0 177#FE11400000
(1563316371.510409) can0 2DE#0200800680000943
(1563316371.511423) can0 355#00000000000060
(1563316371.511424) can0 160#3263530008FFE8
(1563316371.511424) can0 180#18CE353326003410
(1563316371.511425) can0 182#00000000001440C9
(1563316371.512440) can0 1F9#E80018CE00000000
(1563316371.512441) can0 551#81130080FF0280FF
(1563316371.512441) can0 580#00AA800000000000
(1563316371.512442) can0 6E2#000079
(1563316371.513445) can0 216#426C
(1563316371.513446) can0 245#FFE000180010FFE1
(1563316371.513446) can0 2A0#FF7FFE7FFFFE00
(1563316371.514470) can0 351#0000000000004006
(1563316371.515690) can0 002#1200000762535D0E
(1563316371.518378) can0 174#654654AA07000000
(1563316371.519424) can0 176#001E0026C80007
(1563316371.519424) can0 215#FFFCFF00FFFF
(1563316371.519425) can0 177#FE11400000
(1563316371.520432) can0 7E8#04414233E0000000
(1563316371.520433) can0 2DE#0200800680000943
(1563316371.521386) can0 160#3263530008FFE8
(1563316371.521387) can0 180#18CE353326003510
(1563316371.522458) can0 182#00000000001540C9
(1563316371.522459) can0 1F9#E80018CE00000000
(1563316371.523488) can0 284#000000000000098F
(1563316371.523488) can0 285#0000000000000990
(1563316371.525103) can0 280#03C5800000009E40
(1563316371.526120) can0 002#1200000773535D0E
(1563316371.528403) can0 174#654654AA08000000
(1563316371.529394) can0 176#001E0026C80008
(1563316371.529395) can0 177#FE11400000
(1563316371.530405) can0 2DE#0200800680000943
(1563316371.531412) can0 160#3263530008FFE8
(1563316371.532416) can0 180#18B5353326003610
(1563316371.532417) can0 182#00000000001640C9
(1563316371.532418) can0 1F9#E80018B500000000
(1563316371.533440) can0 7E8#044143004C000000
(1563316371.533440) can0 216#426C
(1563316371.533441) can0 245#FFE000180010FFE2
(1563316371.534442) can0 2A0#FF7FFE7FFFFE00
(1563316371.534444) can0 354#0000000000001400
(1563316371.534444) can0 385#00000000000000
(1563316371.535700) can0 002#1200000704535D0E
(1563316371.538400) can0 174#654654AA09000000
(1563316371.539407) can0 176#001E0026C80009
(1563316371.539408) can0 215#FFFCFF00FFFF
(1563316371.539408) can0 177#FE11400000
(1563316371.540416) can0 2DE#0200800680000943
(1563316371.541730) can0 160#3273530008FFE8
(1563316371.542725) can0 180#18B5353327003710
(1563316371.542726) can0 182#00000000001740C9
(1563316371.542726) can0 1F9#E80018B500000000
(1563316371.543724) can0 284#0000000000000A90
(1563316371.543724) can0 285#0000000000000A91
(1563316371.545231) can0 280#03C4800000009D40
(1563316371.546154) can0 002#1200000715535D0E
(1563316371.548271) can0 7E8#0441447F4D000000
(1563316371.549281) can0 174#654654AA0A000000
(1563316371.549282) can0 176#001E0026C8000A
(1563316371.549282) can0 177#FE11400000
(1563316371.549283) can0 421#0800
(1563316371.550255) can0 2DE#0200800680000943
(1563316371.551294) can0 355#00000000000060
(1563316371.552326) can0 160#3273530008FFE8
(1563316371.552327) can0 180#18B5353327003810
(1563316371.552327) can0 182#00000000001840C9
(1563316371.553326) can0 1F9#E80018B500000000
(1563316371.553327) can0 60D#0806000000000000
(1563316371.553327) can0 216#426C
(1563316371.553328) can0 245#FFE000180010FFE3
(1563316371.554330) can0 2A0#FF7FFE7FFFFE00
(1563316371.555723) can0 002#1200000726535D0E
(1563316371.558401) can0 174#654654AA0B000000
(1563316371.559386) can0 176#001E0026C8000B
(1563316371.559387) can0 215#FFFCFF00FFFF
(1563316371.559387) can0 177#FE11400000
(1563316371.560312) can0 2DE#0200800680000943
(1563316371.561432) can0 7E8#0341450700000000
(1563316371.562419) can0 160#3273540008FFE8
(1563316371.562420) can0 180#18B5354327003910
(1563316371.563447) can0 182#00000000001940C9
(1563316371.563448) can0 1F9#E80018B500000000
(1563316371.563448) can0 284#0000000000000B91
(1563316371.563448) can0 285#0000000000000B92
(1563316371.565113) can0 280#03C3800000009D40
(1563316371.566117) can0 5C5#4401F0C8000C007F
(1563316371.566117) can0 002#1200000737535D0E
(1563316371.568335) can0 174#654654AA0C000000
(1563316371.569306) can0 176#001E0026C8000C
(1563316371.569307) can0 177#FE11400000
(1563316371.570305) can0 2DE#0200800680000943
(1563316371.572180) can0 160#3273530008FFE8
(1563316371.573200) can0 180#18CE353327003A10
(1563316371.573201) can0 182#00000000001A40C9
(1563316371.573201) can0 1F9#E80018CE00000000
(1563316371.573202) can0 216#426C
(1563316371.574252) can0 245#FFE000180010FFE0
(1563316371.574253) can0 2A0#FF7FFE7FFFFE00
(1563316371.574253) can0 354#0000000000001400
(1563316371.574254) can0 35D#8103000010000000
(1563316371.575254) can0 7E8#0341471100000000
(1563316371.576261) can0 002#12000007C8535D0E
(1563316371.578334) can0 174#654654AA0D000000
(1563316371.579354) can0 176#001E0026C8000D
(1563316371.579355) can0 215#FFFCFF00FFFF
(1563316371.579356) can0 177#FE11400000
(1563316371.579356) can0 560#741430
(1563316371.580372) can0 2DE#0200800680000943
(1563316371.582831) can0 160#3263530008FFE8
(1563316371.583833) can0 180#18CE353326003B10
(1563316371.583834) can0 182#00000000001B40C9
(1563316371.583835) can0 1F9#E80018CE00000000
(1563316371.583835) can0 284#0000000000000C92
(1563316371.584854) can0 285#0000000000000C93
(1563316371.584855) can0 625#0280FF1D2000
(1563316371.585848) can0 280#03C3800000009A40
(1563316371.585849) can0 002#12000007D9535D0E
(1563316371.588309) can0 174#654654AA0E000000
(1563316371.589333) can0 176#001E0026C8000E
(1563316371.589349) can0 177#FE11400000
(1563316371.589349) can0 7E8#0341490000000000
(1563316371.590331) can0 2DE#0200800680000943
(1563316371.590333) can0 355#00000000000060
(1563316371.592699) can0 358#0042800000000000
(1563316371.593701) can0 160#3263520008FFE8
(1563316371.593702) can0 180#18CE352326003C10
(1563316371.593702) can0 182#00000000001C40C9
(1563316371.593703) can0 1F9#E80018CE00000000
(1563316371.594708) can0 216#426C
(1563316371.594729) can0 245#FFE000180010FFE1
(1563316371.594729) can0 2A0#FF7FFE7FFFFE00
(1563316371.595721) can0 002#12000007EA535D0E
(1563316371.598311) can0 174#654654AA0F000000
(1563316371.599332) can0 176#001E0026C8000F
(1563316371.599333) can0 215#FFFCFF00FFFF
(1563316371.599334) can0 177#FE11400000
(1563316371.600331) can0 2DE#0200800680000943
(1563316371.603372) can0 160#3263520008FFE8
(1563316371.603374) can0 180#18B5352326003D10
(1563316371.604395) can0 182#00000000001D40C9
(1563316371.604396) can0 1F9#E80018B500000000
(1563316371.604411) can0 284#0000000000000D93
(1563316371.604412) can0 285#0000000000000D94
(1563316371.605393) can0 7E8#03414A0000000000
(1563316371.605395) can0 280#03C680000000A140
(1563316371.606414) can0 002#12000007FB535D0E
(1563316371.608311) can0 174#654654AA00000000
(1563316371.609311) can0 176#001E0026C80000
(1563316371.609312) can0 177#FE11400000
(1563316371.609313) can0 421#0800
(1563316371.610331) can0 2DE#0200800680000943
(1563316371.612810) can0 351#0000000000004006
(1563316371.613811) can0 216#426C
(1563316371.613813) can0 245#FFE000180010FFE2
(1563316371.613813) can0 160#3273520008FFE8
(1563316371.613814) can0 180#18B5352327003E10
(1563316371.614833) can0 182#00000000001E40C9
(1563316371.614834) can0 1F9#E80018B500000000
(1563316371.614835) can0 2A0#FF7FFE7FFFFE00
(1563316371.614835) can0 354#0000000000001400
(1563316371.614851) can0 551#81140080FF0280FF
(1563316371.615818) can0 580#00AA800000000000
(1563316371.615820) can0 6E2#00007A
(1563316371.615820) can0 002#120000078C535D0E
(1563316371.617873) can0 7E8#03414C1100000000
(1563316371.618873) can0 174#654654AA01000000
(1563316371.618874) can0 176#001E0026C80001
(1563316371.618875) can0 215#FFFCFF00FFFF
(1563316371.619893) can0 177#FE11400000
(1563316371.620914) can0 2DE#0200800680000943
(1563316371.623126) can0 284#0000000000000E94
(1563316371.624144) can0 285#0000000000000E95
(1563316371.624160) can0 160#3273520008FFE8
(1563316371.624161) can0 180#18B5352327003F10
(1563316371.624161) can0 182#00000000001F40C9
(1563316371.625143) can0 1F9#E80018B500000000
(1563316371.625145) can0 280#03C5800000009840
(1563316371.626164) can0 002#120000079D535D0E
(1563316371.628329) can0 174#654654AA02000000
(1563316371.629331) can0 176#001E0026C80002
(1563316371.629347) can0 177#FE11400000
(1563316371.630351) can0 2DE#0200800680000943
(1563316371.631352) can0 355#00000000000060
(1563316371.631354) can0 7E8#04414D0000000000
(1563316371.632894) can0 385#00000000000000
(1563316371.633931) can0 216#426C
(1563316371.633932) can0 245#FFE000180010FFE3
(1563316371.633932) can0 2A0#FF7FFD7FFFFE00
(1563316371.633933) can0 160#3273520008FFE8
(1563316371.634914) can0 180#18B5352327003010
(1563316371.634916) can0 182#00000000001040C9
(1563316371.634916) can0 1F9#E80018B500000000
(1563316371.635935) can0 002#12000007AE535D0E
(1563316371.638323) can0 174#654654AA03000000
(1563316371.639310) can0 176#001E0026C80003
(1563316371.639311) can0 215#FFFCFF00FFFF
(1563316371.639311) can0 177#FE11400000
(1563316371.640331) can0 2DE#0200800680000943
(1563316371.643146) can0 284#0000000000000F95
(1563316371.644187) can0 285#0000000000000F96
(1563316371.644204) can0 160#3273530008FFE8
(1563316371.645207) can0 180#18CE353327003110
(1563316371.645225) can0 182#00000000001140C9
(1563316371.645225) can0 1F9#E80018CE00000000
(1563316371.645226) can0 7E8#04414EFFFF000000
(1563316371.646227) can0 280#03C2800000009B40
(1563316371.646242) can0 002#12000007BF535D0E
(1563316371.648292) can0 174#654654AA04000000
(1563316371.649310) can0 176#001E0026C80004
(1563316371.649311) can0 177#FE11400000
(1563316371.650330) can0 2DE#0200800680000943
(1563316371.652700) can0 60D#0806000000000000
(1563316371.653699) can0 216#426C
(1563316371.653700) can0 245#FFE000180010FFE0
(1563316371.653700) can0 2A0#FF7FFE7FFFFE00
(1563316371.653701) can0 354#0000000000001400
(1563316371.654741) can0 160#3263520008FFE8
(1563316371.654742) can0 180#18CE352326003210
(1563316371.654743) can0 182#00000000001240C9
(1563316371.655743) can0 1F9#E80018CE00000000
(1563316371.655743) can0 002#1200000740535D0E
(1563316371.658845) can0 174#654654AA05000000
(1563316371.658846) can0 176#001E0026C80005
(1563316371.658846) can0 215#FFFCFF00FFFF
(1563316371.659831) can0 177#FE11400000
(1563316371.659832) can0 7E8#0341510100000000
(1563316371.660851) can0 2DE#0200800680000943
(1563316371.663053) can0 284#0000000000001096
(1563316371.664101) can0 285#0000000000001097
(1563316371.665102) can0 160#3263520008FFE8
(1563316371.665103) can0 180#18CE352326003310
(1563316371.665118) can0 182#00000000001340C9
(1563316371.666123) can0 1F9#E80018CE00000000
(1563316371.666139) can0 280#03C5800000009E40
(1563316371.666140) can0 5C5#4401F0C8000C007F
(1563316371.666140) can0 002#1200000751535D0E
(1563316371.668291) can0 174#654654AA06000000
(1563316371.669310) can0 176#001E0026C80006
(1563316371.669326) can0 177#FE11400000
(1563316371.669326) can0 421#0800
(1563316371.670309) can0 2DE#0200800680000943
(1563316371.671297) can0 355#00000000000060
(1563316371.672352) can0 7E8#0641010007E50000
(1563316371.673373) can0 35D#8103000010000000
(1563316371.673374) can0 216#426C
(1563316371.673374) can0 245#FFE000180010FFE1
(1563316371.674371) can0 2A0#FF7FFF7FFFFE00
(1563316371.675372) can0 160#3263530008FFE8
(1563316371.675388) can0 180#18CE353326003410
(1563316371.675388) can0 182#00000000001440C9
(1563316371.675389) can0 1F9#E80018CE00000000
(1563316371.676392) can0 002#1200000762535D0E
(1563316371.678310) can0 174#654654AA07000000
(1563316371.679310) can0 176#001E0026C80007
(1563316371.679311) can0 215#FFFCFF00FFFF
(1563316371.679312) can0 177#FE11400000
(1563316371.679327) can0 560#741530
(1563316371.680329) can0 2DE#0200800680000943
(1563316371.682934) can0 625#0280FF1D2000
(1563316371.683999) can0 284#0000000000001197
(1563316371.684000) can0 285#0000000000001198
(1563316371.684998) can0 160#3263530008FFE8
(1563316371.686038) can0 180#18CE353326003510
(1563316371.686039) can0 182#00000000001540C9
(1563316371.686040) can0 002#1200000773535D0E
(1563316371.686040) can0 1F9#E80018CE00000000
(1563316371.687047) can0 280#03C5800000009C40
(1563316371.688080) can0 7E8#0441030200000000
(1563316371.689101) can0 174#654654AA08000000
(1563316371.689117) can0 176#001E0026C80008
(1563316371.689118) can0 177#FE11400000
(1563316371.690101) can0 2DE#0200800680000943
(1563316371.692810) can0 358#0042800000000000
(1563316371.693810) can0 216#426C
(1563316371.693812) can0 245#FFE000180010FFE2
(1563316371.693829) can0 2A0#FF7FFF7FFFFE00
(1563316371.693830) can0 354#0000000000001400
(1563316371.695384) can0 160#3263530008FFE8
(1563316371.696375) can0 180#18CE353326003610
(1563316371.696377) can0 002#1200000704535D0E
(1563316371.696378) can0 182#00000000001640C9
(1563316371.696379) can0 1F9#E80018CE00000000
(1563316371.698304) can0 174#654654AA09000000
(1563316371.699323) can0 176#001E0026C80009
(1563316371.699324) can0 215#FFFCFF00FFFF
(1563316371.699324) can0 177#FE11400000
(1563316371.700347) can0 7E8#0341046100000000
(1563316371.700347) can0 2DE#0200800680000943
(1563316371.703120) can0 284#0000000000001298
(1563316371.704178) can0 285#0000000000001299
(1563316371.705177) can0 280#03C3800000009B40
(1563316371.706200) can0 160#3263530008FFE8
(1563316371.706201) can0 180#18CE353326003710
(1563316371.706202) can0 002#1200000715535D0E
(1563316371.706203) can0 182#00000000001740C9
(1563316371.707178) can0 1F9#E80018CE00000000
(1563316371.708288) can0 174#654654AA0A000000
(1563316371.709301) can0 176#001E0026C8000A
(1563316371.709302) can0 177#FE11400000
(1563316371.710323) can0 2DE#0200800680000943
(1563316371.711325) can0 355#00000000000060
(1563316371.712735) can0 351#0000000000004006
(1563316371.713786) can0 216#426C
(1563316371.713787) can0 245#FFE000180010FFE3
(1563316371.713787) can0 2A0#FF7FFF7FFFFE00
(1563316371.714781) can0 7E8#0341058100000000
(1563316371.715787) can0 002#1200000726535D0E
(1563316371.716809) can0 160#3263530008FFE8
(1563316371.716810) can0 180#18CE353326003810
(1563316371.716811) can0 182#00000000001840C9
(1563316371.716812) can0 1F9#E80018CE00000000
(1563316371.717809) can0 551#81140080FF0280FF
(1563316371.717810) can0 580#00AA800000000000
(1563316371.717811) can0 6E2#00007B
(1563316371.718830) can0 174#654654AA0B000000
(1563316371.718831) can0 176#001E0026C8000B
(1563316371.718831) can0 215#FFFCFF00FFFF
(1563316371.719829) can0 177#FE11400000
(1563316371.720850) can0 2DE#0200800680000943
(1563316371.723082) can0 284#0000000000001399
(1563316371.724100) can0 285#000000000000139A
(1563316371.725120) can0 280#03C4800000009F40
(1563316371.726142) can0 002#1200000737535D0E
(1563316371.726143) can0 160#3263530008FFE8
(1563316371.726144) can0 180#18CE353326003910
(1563316371.727145) can0 182#00000000001940C9
(1563316371.727147) can0 1F9#E80018CE00000000
(1563316371.729185) can0 174#654654AA0C000000
(1563316371.729186) can0 176#001E0026C8000C
(1563316371.729187) can0 7E8#0341068200000000
(1563316371.729188) can0 177#FE11400000
(1563316371.729189) can0 421#0800
(1563316371.730151) can0 2DE#0200800680000943
(1563316371.732622) can0 385#00000000000000
(1563316371.733640) can0 216#426C
(1563316371.733641) can0 245#FFE000180010FFE0
(1563316371.733642) can0 2A0#FF7FFF7FFFFE00
(1563316371.733642) can0 354#0000000000001400
(1563316371.735621) can0 002#12000007C8535D0E
(1563316371.736640) can0 160#3263530008FFE8
(1563316371.736640) can0 180#18CE353326003A10
(1563316371.736641) can0 182#00000000001A40C9
(1563316371.737660) can0 1F9#E80018CE00000000
(1563316371.738681) can0 174#654654AA0D000000
(1563316371.738682) can0 176#001E0026C8000D
(1563316371.738683) can0 215#FFFCFF00FFFF
(1563316371.739725) can0 177#FE11400000
(1563316371.740716) can0 2DE#0200800680000943
(1563316371.742765) can0 7E8#0341077C00000000
(1563316371.743787) can0 284#000000000000149A
(1563316371.743788) can0 285#000000000000149B
(1563316371.745165) can0 280#03C3800000009A40
(1563316371.746162) can0 002#12000007D9535D0E
(1563316371.747184) can0 160#3263530008FFE8
(1563316371.747185) can0 180#18CE353326003B10
(1563316371.747186) can0 182#00000000001B40C9
(1563316371.747186) can0 1F9#E80018CE00000000
(1563316371.748288) can0 174#654654AA0E000000
(1563316371.749287) can0 176#001E0026C8000E
(1563316371.749288) can0 177#FE11400000
(1563316371.750307) can0 2DE#0200800680000943
(1563316371.751310) can0 355#00000000000060
(1563316371.752706) can0 60D#0806000000000000
(1563316371.753725) can0 216#426C
(1563316371.753727) can0 245#FFE000180010FFE1
(1563316371.753727) can0 2A0#FF7FFF7FFFFE00
(1563316371.756390) can0 002#12000007EA535D0E
(1563316371.757392) can0 160#3263530008FFE8
(1563316371.757393) can0 180#18B5353326003C10
(1563316371.757393) can0 182#00000000001C40C9
(1563316371.757394) can0 1F9#E80018B500000000
(1563316371.758412) can0 7E8#04410C0C4E000000
(1563316371.758413) can0 174#654654AA0F000000
(1563316371.759433) can0 176#001E0026C8000F
(1563316371.759434) can0 215#FFFCFF00FFFF
(1563316371.759435) can0 177#FE11400000
(1563316371.760432) can0 2DE#0200800680000943
(1563316371.763122) can0 284#000000000000159B
(1563316371.764119) can0 285#000000000000159C
(1563316371.765140) can0 280#03C5800000009B40
(1563316371.766140) can0 5C5#4401F0C8000C007F
(1563316371.766142) can0 002#12000007FB535D0E
(1563316371.767162) can0 160#3273530008FFE8
(1563316371.767163) can0 180#18B5353327003D10
(1563316371.768162) can0 182#00000000001D40C9
(1563316371.768163) can0 1F9#E80018B500000000
(1563316371.769182) can0 174#654654AA00000000
(1563316371.769183) can0 176#001E0026C80000
(1563316371.769184) can0 177#FE11400000
(1563316371.770184) can0 2DE#0200800680000943
(1563316371.771206) can0 7E8#03410D0000000000
(1563316371.772539) can0 35D#8103000010000000
(1563316371.773558) can0 216#426C
(1563316371.773559) can0 245#FFE000180010FFE2
(1563316371.773560) can0 2A0#FF7FFF7FFFFE00
(1563316371.774578) can0 354#0000000000001400
(1563316371.775662) can0 002#120000078C535D0E
(1563316371.777081) can0 160#3273530008FFE8
(1563316371.778100) can0 180#18B5353327003E10
(1563316371.778101) can0 182#00000000001E40C9
(1563316371.778102) can0 1F9#E80018B500000000
(1563316371.779124) can0 174#654654AA01000000
(1563316371.779125) can0 176#001E0026C80001
(1563316371.779126) can0 215#FFFCFF00FFFF
(1563316371.779126) can0 177#FE11400000
(1563316371.779127) can0 560#741699
(1563316371.780140) can0 2DE#0200800680000943
(1563316371.782993) can0 625#0280FF1D2000
(1563316371.784015) can0 284#000000000000169C
(1563316371.784016) can0 285#000000000000169D
(1563316371.785015) can0 7E8#03410E9400000000
(1563316371.786036) can0 280#03C580000000A140
(1563316371.786038) can0 002#120000079D535D0E
(1563316371.787477) can0 160#3273530008FFE8
(1563316371.788477) can0 180#18B5353327003F10
(1563316371.788478) can0 182#00000000001F40C9
(1563316371.788479) can0 1F9#E80018B500000000
(1563316371.788479) can0 174#654654AA02000000
(1563316371.789495) can0 176#001E0026C80002
(1563316371.789496) can0 177#FE11400000
(1563316371.789497) can0 421#0800
(1563316371.790515) can0 2DE#0200800680000943
(1563316371.790516) can0 355#00000000000060
(1563316371.792621) can0 358#0042800000000000
(1563316371.793619) can0 216#426C
(1563316371.793621) can0 245#FFE000180010FFE3
(1563316371.793621) can0 2A0#FF7FFE7FFFFE00
(1563316371.795666) can0 002#12000007AE535D0E
(1563316371.798121) can0 160#3273530008FFE8
(1563316371.798122) can0 180#18B5353327003010
(1563316371.798123) can0 182#00000000001040C9
(1563316371.799142) can0 1F9#E80018B500000000
(1563316371.799143) can0 174#654654AA03000000
(1563316371.799143) can0 215#FFFCFF00FFFF
(1563316371.799144) can0 176#001E0026C80003
(1563316371.800161) can0 7E8#03410F6300000000
(1563316371.800162) can0 177#FE11400000
(1563316371.801160) can0 2DE#0200800680000943
(1563316371.803125) can0 284#000000000000179D
(1563316371.804139) can0 285#000000000000179E
(1563316371.805160) can0 280#03C5800000009A40
(1563316371.806182) can0 002#12000007BF535D0E
(1563316371.807994) can0 160#3273530008FFE8
(1563316371.809015) can0 180#18B5353327003110
(1563316371.809017) can0 174#654654AA04000000
(1563316371.809017) can0 182#00000000001140C9
(1563316371.809018) can0 176#001E0026C80004
(1563316371.810015) can0 1F9#E80018B500000000
(1563316371.810016) can0 177#FE11400000
(1563316371.811024) can0 2DE#0200800680000943
(1563316371.812056) can0 7E8#044110023F000000
(1563316371.813056) can0 351#0000000000004006
(1563316371.813058) can0 216#426C
(1563316371.814078) can0 245#FFE000180010FFE0
(1563316371.814079) can0 2A0#FF7FFE7FFFFE00
(1563316371.814080) can0 354#0000000000001400
(1563316371.815680) can0 002#1200000740535D0E
(1563316371.818139) can0 160#3273530008FFE8
(1563316371.819162) can0 174#654654AA05000000
(1563316371.819163) can0 180#18B5353327003210
(1563316371.819164) can0 176#001E0026C80005
(1563316371.819164) can0 182#00000000001240C9
(1563316371.820183) can0 177#FE11400000
(1563316371.820184) can0 1F9#E80018B500000000
(1563316371.820185) can0 215#FFFCFF00FFFF
(1563316371.820185) can0 551#81150080FF0280FF
(1563316371.820186) can0 2DE#0200800680000943
(1563316371.821202) can0 580#00AA800000000000
(1563316371.821204) can0 6E2#000078
(1563316371.823059) can0 284#000000000000189E
(1563316371.824121) can0 285#000000000000189F
(1563316371.825144) can0 280#03C4800000009C40
(1563316371.826161) can0 002#1200000751535D0E
(1563316371.826162) can0 7E8#0341111100000000
(1563316371.828246) can0 174#654654AA06000000
(1563316371.829266) can0 160#3273530008FFE8
(1563316371.829267) can0 176#001E0026C80006
(1563316371.829267) can0 180#189C353327003310
(1563316371.829268) can0 177#FE11400000
(1563316371.830265) can0 182#00000000001340C9
(1563316371.830266) can0 1F9#E800189C00000000
(1563316371.830267) can0 2DE#0200800680000943
(1563316371.831284) can0 355#00000000000060
(1563316371.832663) can0 385#00000000000000
(1563316371.833682) can0 216#426C
(1563316371.833683) can0 245#FFE000180010FFE1
(1563316371.833684) can0 2A0#FF7FFF7FFFFE00
(1563316371.835669) can0 002#1200000762535D0E
(1563316371.838234) can0 174#654654AA07000000
(1563316371.839269) can0 176#001E0026C80007
(1563316371.839270) can0 160#3273530008FFE8
(1563316371.839271) can0 177#FE11400000
(1563316371.839271) can0 180#189C353327003410
(1563316371.840307) can0 182#00000000001440C9
(1563316371.840311) can0 1F9#E800189C00000000
(1563316371.840312) can0 215#FFFCFF00FFFF
(1563316371.840314) can0 2DE#0200800680000943
(1563316371.841306) can0 7E8#0341130300000000
(1563316371.843181) can0 284#000000000000199F
(1563316371.844201) can0 285#00000000000019A0
(1563316371.845201) can0 280#03C3800000009C40
(1563316371.846222) can0 002#1200000773535D0E
(1563316371.848245) can0 174#654654AA08000000
(1563316371.849265) can0 176#001E0026C80008
(1563316371.849266) can0 177#FE11400000
(1563316371.849267) can0 421#0800
(1563316371.849268) can0 160#3273530008FFE8
(1563316371.849268) can0 180#189C353327003510
(1563316371.850264) can0 182#00000000001540C9
(1563316371.850265) can0 1F9#E800189C00000000
(1563316371.850266) can0 2DE#0200800680000943
(1563316371.852583) can0 60D#0806000000000000
(1563316371.853641) can0 216#426C
(1563316371.853642) can0 245#FFE000180010FFE2
(1563316371.853643) can0 2A0#FF7FFF7FFFFE00
(1563316371.854639) can0 354#0000000000001400
(1563316371.854640) can0 7E8#0441153AFF000000
(1563316371.855659) can0 002#1200000704535D0E
(1563316371.858243) can0 174#654654AA09000000
(1563316371.859265) can0 176#001E0026C80009
(1563316371.859266) can0 215#FFFCFF00FFFF
(1563316371.859267) can0 177#FE11400000
(1563316371.859267) can0 160#3273530008FFE8
(1563316371.860285) can0 180#189C353327003610
(1563316371.860286) can0 182#00000000001640C9
(1563316371.860287) can0 1F9#E800189C00000000
(1563316371.860288) can0 2DE#0200800680000943
(1563316371.863085) can0 284#0000000000001AA0
(1563316371.864138) can0 285#0000000000001AA1
(1563316371.865138) can0 280#03C4800000009D40
(1563316371.866161) can0 5C5#4401F0C8000C007F
(1563316371.866163) can0 002#1200000715535D0E
(1563316371.868180) can0 7E8#03411C0100000000
(1563316371.869202) can0 174#654654AA0A000000
(1563316371.869203) can0 176#001E0026C8000A
(1563316371.869204) can0 177#FE11400000
(1563316371.870223) can0 160#3273530008FFE8
(1563316371.870224) can0 180#189C353327003710
(1563316371.870225) can0 182#00000000001740C9
(1563316371.870226) can0 1F9#E800189C00000000
(1563316371.871243) can0 2DE#0200800680000943
(1563316371.871244) can0 355#00000000000060
(1563316371.872704) can0 35D#8103000010000000
(1563316371.873723) can0 216#426C
(1563316371.873724) can0 245#FFE000180010FFE3
(1563316371.873725) can0 2A0#FF7FFD7FFFFE00
(1563316371.875662) can0 002#1200000726535D0E
(1563316371.878243) can0 174#654654AA0B000000
(1563316371.879265) can0 176#001E0026C8000B
(1563316371.879267) can0 215#FFFCFF00FFFF
(1563316371.879267) can0 177#FE11400000
(1563316371.879268) can0 560#7417AD
(1563316371.880253) can0 160#3273520008FFE8
(1563316371.880255) can0 180#189C352327003810
(1563316371.880256) can0 182#00000000001840C9
(1563316371.880257) can0 1F9#E800189C00000000
(1563316371.881304) can0 2DE#0200800680000943
(1563316371.881306) can0 7E8#04411F014A000000
(1563316371.882970) can0 625#0280FF1D2000
(1563316371.883993) can0 284#0000000000001BA1
(1563316371.883994) can0 285#0000000000001BA2
(1563316371.885391) can0 280#03C3800000009A40
(1563316371.886410) can0 002#1200000737535D0E
(1563316371.888242) can0 174#654654AA0C000000
(1563316371.889263) can0 176#001E0026C8000C
(1563316371.889264) can0 177#FE11400000
(1563316371.890264) can0 160#3273520008FFE8
(1563316371.890268) can0 180#189C352327003910
(1563316371.891284) can0 182#00000000001940C9
(1563316371.891285) can0 1F9#E800189C00000000
(1563316371.891286) can0 2DE#0200800680000943
(1563316371.892640) can0 358#0042800000000000
(1563316371.893660) can0 216#426C
(1563316371.893661) can0 245#FFE000180010FFE0
(1563316371.893662) can0 2A0#FF7FFE7FFFFE00
(1563316371.893662) can0 354#0000000000001400
(1563316371.896097) can0 7E8#0441210000000000
(1563316371.896098) can0 002#12000007C8535D0E
(1563316371.898266) can0 174#654654AA0D000000
(1563316371.899284) can0 176#001E0026C8000D
(1563316371.899285) can0 215#FFFCFF00FFFF
(1563316371.899286) can0 177#FE11400000
(1563316371.900284) can0 160#3273530008FFE8
(1563316371.900285) can0 180#189C353327003A10
(1563316371.901305) can0 182#00000000001A40C9
(1563316371.901306) can0 1F9#E800189C00000000
(1563316371.901307) can0 2DE#0200800680000943
(1563316371.903099) can0 284#0000000000001CA2
(1563316371.904096) can0 285#0000000000001CA3
(1563316371.905180) can0 280#03C480000000A040
(1563316371.906180) can0 002#13000107D9535D0E
(1563316371.908223) can0 174#654654AA0E000000
(1563316371.909224) can0 176#001E0026C8000E
(1563316371.909226) can0 177#FE11400000
(1563316371.909226) can0 421#0800
(1563316371.910243) can0 160#3273530008FFE8
(1563316371.911266) can0 180#1883353327003B10
(1563316371.911267) can0 182#00000000001B40C9
(1563316371.911268) can0 1F9#E800188300000000
(1563316371.911268) can0 2DE#0200800680000943
(1563316371.912262) can0 355#00000000000060
(1563316371.912264) can0 7E8#0641247F5F46C100
(1563316371.913284) can0 351#0000000000004006
(1563316371.913286) can0 216#426C
(1563316371.913286) can0 245#FFE000180010FFE1
(1563316371.914283) can0 2A0#FF7FFF7FFFFE00
(1563316371.915662) can0 002#12000107FA535D0E
(1563316371.918242) can0 174#654654AA0F000000
(1563316371.919242) can0 176#001E0026C8000F
(1563316371.919243) can0 215#FFFCFF00FFFF
(1563316371.919244) can0 177#FE11400000
(1563316371.920262) can0 2DE#0200800680000943
(1563316371.921305) can0 160#3273550008FFE8
(1563316371.921306) can0 180#1883355327003C10
(1563316371.921307) can0 182#00000000001C40C9
(1563316371.922274) can0 1F9#E800188300000000
(1563316371.922275) can0 551#81160080FF0280FF
(1563316371.922276) can0 580#00AA800000000000
(1563316371.922277) can0 6E2#000079
(1563316371.923333) can0 284#0000000000001DA3
(1563316371.924346) can0 285#0000000000001DA4
(1563316371.924348) can0 7E8#03412E0000000000
(1563316371.925367) can0 280#03C4800000009A40
(1563316371.926366) can0 002#12000107EB535D0E
(1563316371.928242) can0 174#654654AA00000000
(1563316371.929283) can0 176#001E0026C80000
(1563316371.929285) can0 177#FE11400000
(1563316371.930282) can0 2DE#0200800680000943
(1563316371.931307) can0 160#3273550008FFE8
(1563316371.931309) can0 180#1883355327003D10
(1563316371.931309) can0 182#00000000001D40C9
(1563316371.932304) can0 1F9#E800188300000000
(1563316371.933326) can0 385#00000000000000
(1563316371.933327) can0 216#426C
(1563316371.933328) can0 245#FFE000180010FFE2
(1563316371.934346) can0 2A0#FF7FFF7FFFFE00
(1563316371.934347) can0 354#0000000000001400
(1563316371.935684) can0 002#120001079C535D0E
(1563316371.937783) can0 7E8#03412F4400000000
(1563316371.938804) can0 174#654654AA01000000
(1563316371.938808) can0 176#001E0026C80001
(1563316371.938809) can0 215#FFFCFF00FFFF
(1563316371.939803) can0 177#FE11400000
(1563316371.940824) can0 2DE#0200800680000943
(1563316371.941847) can0 160#3273550008FFE8
(1563316371.941848) can0 180#1883355327003E10
(1563316371.941849) can0 182#00000000001E40C9
(1563316371.941849) can0 1F9#E800188300000000
(1563316371.943119) can0 284#0000000000001EA4
(1563316371.944137) can0 285#0000000000001EA5
(1563316371.945179) can0 280#03C4800000009D40
(1563316371.946178) can0 002#120001078D535D0E
(1563316371.948204) can0 174#654654AA02000000
(1563316371.949242) can0 176#001E0026C80002
(1563316371.949243) can0 177#FE11400000
(1563316371.950208) can0 2DE#0200800680000943
(1563316371.951262) can0 355#00000000000060
(1563316371.951264) can0 160#3273560008FFE8
(1563316371.952284) can0 180#189C356327003F10
(1563316371.952285) can0 182#00000000001F40C9
(1563316371.952286) can0 1F9#E800189C00000000
(1563316371.952286) can0 7E8#034130FF00000000
(1563316371.953252) can0 60D#0806000000000000
(1563316371.953254) can0 216#426C
(1563316371.953255) can0 245#FFE000180010FFE3
(1563316371.954264) can0 2A0#FF7FFE7FFFFE00
(1563316371.955617) can0 002#12000007AE535D0E
(1563316371.958197) can0 174#654654AA03000000
(1563316371.959198) can0 176#001E0026C80003
(1563316371.959199) can0 215#FFFCFF00FFFF
(1563316371.959199) can0 177#FE11400000
(1563316371.960217) can0 2DE#0200800680000943
(1563316371.961553) can0 160#3273530008FFE8
(1563316371.962573) can0 180#189C353327003010
(1563316371.962573) can0 182#00000000001040C9
(1563316371.962574) can0 1F9#E800189C00000000
(1563316371.963667) can0 284#0000000000001FA5
(1563316371.963668) can0 285#0000000000001FA6
(1563316371.965926) can0 280#03C4800000009C40
(1563316371.965929) can0 5C5#4401F0C8000C007F
(1563316371.965930) can0 7E8#044131FFFF000000
(1563316371.965931) can0 002#12000007BF535D0E
(1563316371.968221) can0 174#654654AA04000000
(1563316371.969273) can0 176#001E0026C80004
(1563316371.969275) can0 177#FE11400000
(1563316371.969276) can0 421#0800
(1563316371.970216) can0 2DE#0200800680000943
(1563316371.971768) can0 160#3273530008FFE8
(1563316371.972790) can0 180#189C353327003110
(1563316371.972792) can0 182#00000000001140C9
(1563316371.972792) can0 1F9#E800189C00000000
(1563316371.972793) can0 35D#8103000010000000
(1563316371.973741) can0 216#426C
(1563316371.973742) can0 245#FFE000180010FFE0
(1563316371.973743) can0 2A0#FF7FFF7FFFFE00
(1563316371.973743) can0 354#0000000000001400
(1563316371.975715) can0 002#1200000740535D0E
(1563316371.978226) can0 174#654654AA05000000
(1563316371.979281) can0 176#001E0026C80005
(1563316371.979282) can0 215#FFFCFF00FFFF
(1563316371.979283) can0 177#FE11400000
(1563316371.979286) can0 560#743000
(1563316371.980259) can0 7E8#0441320000000000
(1563316371.980261) can0 2DE#0200800680000943
(1563316371.981956) can0 160#3273530008FFE8
(1563316371.983000) can0 180#1883353327003210
(1563316371.983002) can0 182#00000000001240C9
(1563316371.983003) can0 1F9#E800188300000000
(1563316371.983995) can0 625#0280FF1D2000
(1563316371.983997) can0 284#00000000000020A6
(1563316371.983998) can0 285#00000000000020A7
(1563316371.985447) can0 280#03C4800000009E40
(1563316371.986442) can0 002#1200000751535D0E
(1563316371.988277) can0 174#654654AA06000000
(1563316371.989293) can0 176#001E0026C80006
(1563316371.989294) can0 177#FE11400000
(1563316371.990285) can0 2DE#0200800680000943
(1563316371.991318) can0 355#00000000000060
(1563316371.992287) can0 160#3273550008FFE8
(1563316371.993336) can0 180#1883355327003310
(1563316371.993338) can0 182#00000000001340C9
(1563316371.993339) can0 1F9#E800188300000000
(1563316371.993339) can0 216#426C
(1563316371.994321) can0 245#FFE000180010FFE1
(1563316371.994322) can0 2A0#FF7FFF7FFFFE00
(1563316371.994322) can0 358#0042800000000000
(1563316371.995376) can0 7E8#0341336300000000
(1563316371.996330) can0 002#1200000762535D0E
(1563316371.998281) can0 174#654654AA07000000
(1563316371.999271) can0 176#001E0026C80007
(1563316371.999273) can0 215#FFFCFF00FFFF
(1563316371.999274) can0 177#FE11400000
(1563316372.000277) can0 2DE#0200800680000943
(1563316372.002532) can0 160#3273550008FFE8
(1563316372.003520) can0 180#1883355327003410
(1563316372.003521) can0 182#00000000001440C9
(1563316372.003523) can0 1F9#E800188300000000
(1563316372.003524) can0 284#00000000000021A7
(1563316372.004505) can0 285#00000000000021A8
(1563316372.005537) can0 280#03C4800000009A40
(1563316372.006513) can0 002#1200000773535D0E
(1563316372.008607) can0 174#654654AA08000000
(1563316372.008608) can0 7E8#04413C0910000000
(1563316372.009532) can0 176#001E0026C80008
(1563316372.009535) can0 177#FE11400000
(1563316372.010575) can0 2DE#0200800680000943
(1563316372.012671) can0 351#0000000000004006
(1563316372.013666) can0 160#3273540008FFE8
(1563316372.013668) can0 180#1883354327003510
(1563316372.013668) can0 182#00000000001540C9
(1563316372.013669) can0 1F9#E800188300000000
(1563316372.014676) can0 216#426C
(1563316372.014677) can0 245#FFE000180010FFE2
(1563316372.014678) can0 2A0#FF7FFF7FFFFE00
(1563316372.014678) can0 354#0000000000001400
(1563316372.015647) can0 002#1200000704535D0E
(1563316372.018268) can0 174#654654AA09000000
(1563316372.019280) can0 176#001E0026C80009
(1563316372.019281) can0 215#FFFCFF00FFFF
(1563316372.019282) can0 177#FE11400000
(1563316372.020295) can0 2DE#0200800680000943
(1563316372.022969) can0 160#3273550008FFE8
(1563316372.023962) can0 180#1883355327003610
(1563316372.023964) can0 182#00000000001640C9
(1563316372.023965) can0 1F9#E800188300000000
(1563316372.023966) can0 284#00000000000022A8
(1563316372.024923) can0 285#00000000000022A9
(1563316372.024924) can0 551#81160080FF0280FF
(1563316372.024924) can0 580#00AA800000000000
(1563316372.024925) can0 6E2#00007A
(1563316372.025951) can0 7E8#064141003765A100
(1563316372.025953) can0 280#03C5800000009F40
(1563316372.025953) can0 002#1200000715535D0E
(1563316372.028253) can0 174#654654AA0A000000
(1563316372.029273) can0 176#001E0026C8000A
(1563316372.029275) can0 177#FE11400000
(1563316372.029276) can0 421#0800
(1563316372.030289) can0 2DE#0200800680000943
(1563316372.031270) can0 355#00000000000060
(1563316372.032621) can0 385#00000000000000
(1563316372.033645) can0 216#426C
(1563316372.033647) can0 245#FFE000180010FFE3
(1563316372.033648) can0 160#3273550008FFE8
(1563316372.033649) can0 180#1883355327003710
(1563316372.034625) can0 182#00000000001740C9
(1563316372.034626) can0 1F9#E800188300000000
(1563316372.034633) can0 2A0#FF7FFF7FFFFE00
(1563316372.035662) can0 002#1200000726535D0E
(1563316372.037758) can0 7E8#04414233E0000000
(1563316372.038675) can0 174#654654AA0B000000
(1563316372.038677) can0 176#001E0026C8000B
(1563316372.038677) can0 215#FFFCFF00FFFF
(1563316372.039734) can0 177#FE11400000
(1563316372.040790) can0 2DE#0200800680000943
(1563316372.043106) can0 284#00000000000023A9
(1563316372.044162) can0 285#00000000000023AA
(1563316372.044164) can0 160#3273560008FFE8
(1563316372.044164) can0 180#1883356327003810
(1563316372.044165) can0 182#00000000001840C9
(1563316372.045114) can0 1F9#E800188300000000
(1563316372.046162) can0 280#03C3800000009940
(1563316372.046164) can0 002#1200000737535D0E
(1563316372.048266) can0 174#654654AA0C000000
(1563316372.049220) can0 176#001E0026C8000C
(1563316372.049223) can0 177#FE11400000
(1563316372.050241) can0 2DE#0200800680000943
(1563316372.051286) can0 7E8#044143004A000000
(1563316372.052730) can0 60D#0806000000000000
(1563316372.053744) can0 216#426C
(1563316372.053745) can0 245#FFE000180010FFE0
(1563316372.053746) can0 2A0#FF7FFE7FFFFE00
(1563316372.053747) can0 354#0000000000001400
(1563316372.054717) can0 160#3273560008FFE8
(1563316372.054718) can0 180#1883356327003910
(1563316372.054719) can0 182#00000000001940C9
(1563316372.054719) can0 1F9#E800188300000000
(1563316372.055777) can0 002#12000007C8535D0E
(1563316372.058256) can0 174#654654AA0D000000
(1563316372.059256) can0 176#001E0026C8000D
(1563316372.059258) can0 215#FFFCFF00FFFF
(1563316372.059259) can0 177#FE11400000
(1563316372.060236) can0 2DE#0200800680000943
(1563316372.063153) can0 284#00000000000024AA
(1563316372.064137) can0 285#00000000000024AB
(1563316372.064139) can0 160#3273560008FFE8
(1563316372.064140) can0 180#1883356327003A10
(1563316372.065197) can0 182#00000000001A40C9
(1563316372.065199) can0 1F9#E800188300000000
(1563316372.065202) can0 280#03C4800000009D40
(1563316372.066208) can0 5C5#4401F0C8000C007F
(1563316372.066209) can0 7E8#0441447F4D000000
(1563316372.066209) can0 002#12000007D9535D0E
(1563316372.068232) can0 174#654654AA0E000000
(1563316372.069249) can0 176#001E0026C8000E
(1563316372.069251) can0 177#FE11400000
(1563316372.070214) can0 2DE#0200800680000943
(1563316372.071259) can0 355#00000000000060
(1563316372.072540) can0 35D#8103000010000000
(1563316372.073561) can0 216#426C
(1563316372.073563) can0 245#FFE000180010FFE1
(1563316372.073563) can0 2A0#FF7FFF7FFFFE00
(1563316372.074521) can0 160#3273560008FFE8
(1563316372.074523) can0 180#1883356327003B10
(1563316372.075561) can0 182#00000000001B40C9
(1563316372.075563) can0 1F9#E800188300000000
(1563316372.076578) can0 002#12000007EA535D0E
(1563316372.078180) can0 174#654654AA0F000000
(1563316372.079211) can0 176#001E0026C8000F
(1563316372.079212) can0 215#FFFCFF00FFFF
(1563316372.079214) can0 177#FE11400000
(1563316372.079217) can0 560#743100
(1563316372.080216) can0 7E8#0341450700000000
(1563316372.080216) can0 2DE#0200800680000943
(1563316372.083009) can0 625#0280FF1D2000
(1563316372.084021) can0 284#00000000000025AB
(1563316372.084023) can0 285#00000000000025AC
(1563316372.084986) can0 160#3273550008FFE8
(1563316372.084988) can0 180#1883355327003C10
(1563316372.084989) can0 182#00000000001C40C9
(1563316372.086024) can0 1F9#E800188300000000
(1563316372.086026) can0 280#03C4800000009D40
(1563316372.086027) can0 002#12000007FB535D0E
(1563316372.088235) can0 174#654654AA00000000
(1563316372.089250) can0 176#001E0026C80000
(1563316372.089252) can0 177#FE11400000
(1563316372.089253) can0 421#0800
(1563316372.090240) can0 2DE#0200800680000943
(1563316372.092514) can0 358#0042800000000000
(1563316372.093601) can0 216#426C
(1563316372.093603) can0 245#FFE000180010FFE2
(1563316372.093604) can0 2A0#FF7FFF7FFFFE00
(1563316372.094579) can0 354#0000000000001400
(1563316372.095606) can0 160#3273560008FFE8
(1563316372.095608) can0 180#1883356327003D10
(1563316372.095609) can0 182#00000000001D40C9
(1563316372.095609) can0 1F9#E800188300000000
(1563316372.096581) can0 002#120000078C535D0E
(1563316372.096583) can0 7E8#0341471100000000
(1563316372.098222) can0 174#654654AA01000000
(1563316372.099220) can0 176#001E0026C80001
(1563316372.099222) can0 215#FFFCFF00FFFF
(1563316372.099223) can0 177#FE11400000
(1563316372.100210) can0 2DE#0200800680000943
(1563316372.103078) can0 284#00000000000026AC
(1563316372.104142) can0 285#00000000000026AD
(1563316372.105144) can0 160#3273530008FFE8
(1563316372.105146) can0 180#189C353327003E10
(1563316372.106152) can0 182#00000000001E40C9
(1563316372.106154) can0 1F9#E800189C00000000
(1563316372.106155) can0 002#120000079D535D0E
(1563316372.106155) can0 280#03C4800000009C40
(1563316372.108706) can0 174#654654AA02000000
(1563316372.108708) can0 176#001E0026C80002
(1563316372.108709) can0 7E8#0341490000000000
(1563316372.109652) can0 177#FE11400000
(1563316372.110682) can0 2DE#0200800680000943
(1563316372.110683) can0 355#00000000000060
(1563316372.112758) can0 351#0000000000004006
(1563316372.113747) can0 216#426C
(1563316372.113749) can0 245#FFE000180010FFE3
(1563316372.113749) can0 2A0#FF7FFF7FFFFE00
(1563316372.115331) can0 160#3273520008FFE8
(1563316372.116348) can0 180#189C352327003F10
(1563316372.116350) can0 002#12000007AE535D0E
(1563316372.116351) can0 182#00000000001F40C9
(1563316372.116351) can0 1F9#E800189C00000000
(1563316372.118233) can0 174#654654AA03000000
(1563316372.119201) can0 176#001E0026C80003
(1563316372.119202) can0 215#FFFCFF00FFFF
(1563316372.119203) can0 177#FE11400000
(1563316372.120205) can0 2DE#0200800680000943
(1563316372.123065) can0 7E8#03414A0000000000
(1563316372.124108) can0 284#00000000000027AD
(1563316372.124110) can0 285#00000000000027AE
(1563316372.125082) can0 280#03C6800000009C40
(1563316372.126147) can0 160#3273530008FFE8
(1563316372.126148) can0 180#189C353327003010
(1563316372.126149) can0 002#12000007BF535D0E
(1563316372.126150) can0 182#00000000001040C9
(1563316372.127101) can0 1F9#E800189C00000000
(1563316372.127103) can0 551#81170080FF0280FF
(1563316372.127104) can0 580#00AA800000000000
(1563316372.127105) can0 6E2#00007B
(1563316372.128208) can0 174#654654AA04000000
(1563316372.129225) can0 176#001E0026C80004
(1563316372.129226) can0 177#FE11400000
(1563316372.130244) can0 2DE#0200800680000943
(1563316372.132578) can0 385#00000000000000
(1563316372.133601) can0 216#426C
(1563316372.133603) can0 245#FFE000180010FFE0
(1563316372.133603) can0 2A0#FF7FFE7FFFFE00
(1563316372.134577) can0 354#0000000000001400
(1563316372.135560) can0 160#3273530008FFE8
(1563316372.136614) can0 002#1200000740535D0E
(1563316372.136616) can0 180#1883353327003110
(1563316372.136617) can0 182#00000000001140C9
(1563316372.136618) can0 1F9#E800188300000000
(1563316372.137630) can0 7E8#03414C1100000000
(1563316372.138607) can0 174#654654AA05000000
(1563316372.138619) can0 176#001E0026C80005
